Freq_Hz_,S11_REAL,S11_IMAG
300000000,34.9011377664134,-45.6801683929681
301000000,34.7983241148665,-45.3140616179323
302000000,34.6092651018782,-44.7645149049923
303000000,34.4788041513586,-44.3833766576407
304000000,34.4075163078,-43.9846322940835
305000000,34.2840915908645,-43.5744692468595
306000000,34.1250116074928,-43.1597494836813
307000000,34.0224361172391,-42.6933418566259
308000000,33.9796958131468,-42.2694824991449
309000000,33.8576231751447,-41.9230224743408
310000000,33.6293525484066,-41.4475109116534
311000000,33.6003578996898,-40.9609022208836
312000000,33.4561664681413,-40.6336809513816
313000000,33.4793100206571,-40.1739461452977
314000000,33.3078055969255,-39.7477074868785
315000000,33.207480002911,-39.3067187004363
316000000,33.1367357960024,-38.8754542435564
317000000,33.0233195100003,-38.4341686621894
318000000,32.9347111173416,-37.979959491501
319000000,32.9004208264759,-37.5994104227831
320000000,32.8173110352774,-37.1071345113873
321000000,32.7225799068309,-36.7570906198744
322000000,32.645796314789,-36.3134292089635
323000000,32.6442465734522,-35.8500725557171
324000000,32.5927971540397,-35.4565388540901
325000000,32.5885571671849,-34.979614890077
326000000,32.4830897650166,-34.5992421627125
327000000,32.3864485694211,-34.2747052027865
328000000,32.3115091585508,-33.8185148759967
329000000,32.2784563226343,-33.3517680084802
330000000,32.1579697118145,-32.8942028680643
331000000,32.1583656163414,-32.4686360667946
332000000,32.0994548445094,-31.9677396696568
333000000,32.0758538353948,-31.6517317472714
334000000,32.0094437146252,-31.2489838508867
335000000,32.0279656200327,-30.7773774214469
336000000,31.99084151843,-30.3734159345816
337000000,31.9575544380044,-30.0066724759385
338000000,31.9089776990634,-29.5398792236281
339000000,31.8161116455247,-29.1561242362507
340000000,31.7118628222104,-28.7036395788734
341000000,31.6833006859791,-28.1557767925509
342000000,31.7284956517406,-27.6953313087716
343000000,31.7451089183675,-27.2480923067762
344000000,31.8045802595591,-26.8175726994874
345000000,31.7629895645008,-26.4270526025454
346000000,31.808396704516,-25.9810092855702
347000000,31.8563772376648,-25.4991210779267
348000000,31.9079613705186,-25.0863654666154
349000000,31.9507860537106,-24.6507170975353
350000000,32.0356234469597,-24.1279011814354
351000000,32.2331688109309,-23.8287714134447
352000000,32.3452829911593,-23.5651962442833
353000000,32.4061991318613,-23.2818690754724
354000000,32.4140658268795,-22.9542626279507
355000000,32.4066577522209,-22.5731812827687
356000000,32.4408921785277,-22.2019223779777
357000000,32.5220158757061,-21.8933177010674
358000000,32.5943119249254,-21.5678931863361
359000000,32.6256132780614,-21.3391397560665
360000000,32.6788779995676,-20.9937537975182
361000000,32.6485636882394,-20.7450171866075
362000000,32.5644962941412,-20.442281124351
363000000,32.5527020039819,-20.1188241155785
364000000,32.6121849308875,-19.709994718559
365000000,32.6413658750428,-19.4902675839825
366000000,32.5058702756406,-19.2182830371096
367000000,32.4879408115205,-18.808899719936
368000000,32.3847086943575,-18.4947249875916
369000000,32.3534504407613,-18.0878167062009
370000000,32.3984220184668,-17.7119847954769
371000000,32.3680677183672,-17.3845604394753
372000000,32.3547776362558,-16.9421042469433
373000000,32.3878988496996,-16.6389535288088
374000000,32.3352966695644,-16.3635423248065
375000000,32.3665144947128,-15.985024792854
376000000,32.3467410467258,-15.5993512936887
377000000,32.3443124175842,-15.2582017566482
378000000,32.3654186591647,-14.9374240048932
379000000,32.3245100562699,-14.5721641052261
380000000,32.3021519771542,-14.1656939913115
381000000,32.3009464824906,-13.8158758253795
382000000,32.3910201575903,-13.4712155298188
383000000,32.3172953143283,-13.0650055935362
384000000,32.3708313651184,-12.7463771243152
385000000,32.3673658810079,-12.3443557697242
386000000,32.3692774765574,-11.9988886154246
387000000,32.4070342160942,-11.6733141182085
388000000,32.4026513674283,-11.3004565320205
389000000,32.376237712342,-10.8967032437933
390000000,32.3700156861169,-10.5195825061432
391000000,32.4258654039988,-10.1844983075533
392000000,32.4940853573205,-9.8598094470993
393000000,32.5592390155961,-9.4519969511546
394000000,32.5594181109728,-9.09738620673161
395000000,32.5953486777169,-8.72331799781649
396000000,32.5609037492605,-8.43451424356349
397000000,32.625431868351,-8.05731664915793
398000000,32.6281217017817,-7.71701414229155
399000000,32.6416400442274,-7.38939810167489
400000000,32.6455138140036,-7.02168574369302
401000000,32.6504222762302,-6.63088888348653
402000000,32.6577031723854,-6.20960034535378
403000000,32.6809565024134,-5.87093937499545
404000000,32.7197299159954,-5.42946750399544
405000000,32.8052887092014,-5.05304755543949
406000000,32.8802407745686,-4.71590972988018
407000000,32.8818993576837,-4.31135476833609
408000000,32.9655596356331,-3.96142924385678
409000000,32.9952982513999,-3.59535131694038
410000000,33.0636781378302,-3.22788058362578
411000000,33.1245141627325,-2.89901085680655
412000000,33.1061552209315,-2.5219325183915
413000000,33.2388949875041,-2.11131341056734
414000000,33.2302043180948,-1.73969501819947
415000000,33.3295590366454,-1.44678812606659
416000000,33.443327247149,-1.08874377605883
417000000,33.4540423486452,-0.667985187528002
418000000,33.5661250595581,-0.399845637094515
419000000,33.6267740358555,-0.0237233078666399
420000000,33.6509272327294,0.391265463720975
421000000,33.6946345683609,0.697013007066662
422000000,33.783780425445,1.06848484132398
423000000,33.8418359728767,1.42545736220031
424000000,33.8556288457094,1.75759225471633
425000000,33.9245264610997,2.15150723538983
426000000,33.9891635741214,2.48352721497597
427000000,34.0502677845079,2.81278032414742
428000000,34.0564900194893,3.26958414294951
429000000,34.1107955679104,3.61289314574126
430000000,34.2038479849611,4.04219530304585
431000000,34.3423509789397,4.45917206787862
432000000,34.4348331567351,4.78637789432371
433000000,34.4555074789462,5.14088061974279
434000000,34.5467198035185,5.54050459806133
435000000,34.6774107641903,5.897701905974
436000000,34.7280433181857,6.25532390089787
437000000,34.8461521640591,6.60842090455874
438000000,34.9178596533224,6.99323195941003
439000000,35.0461271317017,7.3696465104121
440000000,35.0698370655707,7.7159685119552
441000000,35.1433942886592,8.15511007115134
442000000,35.2949692832644,8.51058253783786
443000000,35.3899040541981,8.86090842140747
444000000,35.4644910332813,9.25081163303237
445000000,35.5832386104232,9.6229301688328
446000000,35.6645184007058,9.93596964941005
447000000,35.7698506923717,10.3345875002595
448000000,35.8763209110559,10.6952676691368
449000000,35.9688938196254,11.065731897938
450000000,36.078331322281,11.4301033218959
451000000,36.2115656621589,11.7515672976153
452000000,36.3006497431155,12.1382720770634
453000000,36.4156681989621,12.4339259061105
454000000,36.5029917880807,12.8331217291267
455000000,36.5650577984893,13.2426612274082
456000000,36.7097851182183,13.6008556858201
457000000,36.8227349194709,13.9385261629893
458000000,36.915103268622,14.2538759466512
459000000,36.9917640722482,14.6808689301993
460000000,37.1364672894624,15.0176723740407
461000000,37.2019461637968,15.4259735409955
462000000,37.3559227483043,15.784465251926
463000000,37.4346423722546,16.1582810198096
464000000,37.5190444376937,16.5767009421708
465000000,37.6446101099053,16.9853225524556
466000000,37.8571201906463,17.3208926813811
467000000,37.9966711089474,17.6876770565335
468000000,38.1637023258363,18.0260417739887
469000000,38.2369155234949,18.4899777178737
470000000,38.3797263558975,18.8118237721671
471000000,38.5126989135645,19.2325920992488
472000000,38.6665269348463,19.592629170145
473000000,38.8707784758557,19.9512225238385
474000000,38.9912224048165,20.3098780157811
475000000,39.1116127007152,20.6762197202693
476000000,39.2650980319981,21.0327023144447
477000000,39.3944091109706,21.3738869611284
478000000,39.6001699117866,21.7387233758084
479000000,39.728469383421,22.1424122346342
480000000,39.8443935376536,22.5270447582846
481000000,40.0268860346177,22.8882120649395
482000000,40.2339164132319,23.2312742679629
483000000,40.2933689578835,23.667881374897
484000000,40.5041669501762,24.0917614874974
485000000,40.7453771641605,24.5039519839866
486000000,40.8815816983574,24.8267364220831
487000000,41.062152575077,25.2513280454545
488000000,41.3532758310699,25.5525605674277
489000000,41.5192825304024,25.8323051774116
490000000,41.6375993909176,26.1895821683977
491000000,41.7766495711621,26.6066730414829
492000000,41.9957816568083,26.9490163916723
493000000,42.1901228013096,27.3039266776078
494000000,42.3743565423693,27.6779903844156
495000000,42.5981255536985,28.0804204504249
496000000,42.8064151452787,28.4082566335832
497000000,42.9446388004092,28.7373755922222
498000000,43.0829612771324,29.083040497153
499000000,43.2320870813781,29.4919510899062
500000000,43.3636748946274,29.8503419931822
