Freq_Hz_,S11_REAL,S11_IMAG
300000000,30.7042438875813,-17.6916656691576
301000000,30.6016531653262,-17.4171921334349
302000000,30.5046092613792,-17.1150504834496
303000000,30.4476430175405,-16.7917003400675
304000000,30.3924280503685,-16.4766659037091
305000000,30.3878938995879,-16.1446087179349
306000000,30.2897319916715,-15.9019849678674
307000000,30.2351341045795,-15.5644629055394
308000000,30.1913536780492,-15.2199643697394
309000000,30.1389246771666,-14.9643242447765
310000000,30.0335299950054,-14.6287131660146
311000000,30.0198545807015,-14.2936185417045
312000000,29.9518017209438,-14.0755996853442
313000000,29.9268105746659,-13.7198891675521
314000000,29.8251947476536,-13.3867690890668
315000000,29.7652881731516,-13.0933772205733
316000000,29.744128640159,-12.8114231605002
317000000,29.6633643459219,-12.4846494405023
318000000,29.6140403616707,-12.2233444666468
319000000,29.5635190291546,-11.8426968516704
320000000,29.5750958769207,-11.520966736138
321000000,29.4637179390015,-11.2248513391029
322000000,29.4331367939187,-10.9545885111189
323000000,29.4375879402483,-10.6499325575591
324000000,29.3682693101388,-10.3098429459673
325000000,29.3175886871351,-10.0190903120072
326000000,29.2535036105831,-9.76885691809436
327000000,29.2641519542843,-9.43959691368032
328000000,29.1580395653168,-9.13350104216302
329000000,29.1505123506016,-8.84126713172599
330000000,29.0812163170186,-8.54201094860393
331000000,29.1018560764109,-8.25181891656932
332000000,29.0171696900187,-7.87027605875419
333000000,28.9822726005556,-7.65971475817367
334000000,28.9603645275473,-7.33844596834889
335000000,28.9180570293182,-7.00090602745829
336000000,28.8748869248272,-6.73528261295936
337000000,28.8084828337311,-6.43990040311892
338000000,28.7840435576297,-6.09745738090229
339000000,28.7633033788568,-5.83881286546148
340000000,28.6627021459149,-5.53670798469317
341000000,28.6415526975373,-5.21171864984673
342000000,28.5434172173692,-4.93414122010193
343000000,28.5186298753315,-4.55330320655388
344000000,28.5104454287734,-4.25719449015822
345000000,28.4634758686056,-3.93932392098022
346000000,28.4391388520925,-3.6303898371583
347000000,28.3994430479261,-3.32371107557938
348000000,28.3484204832108,-3.01444026048254
349000000,28.3014254216642,-2.70249569621272
350000000,28.2358660735393,-2.28999165821339
351000000,28.2231557328956,-2.03273462295986
352000000,28.2070803841384,-1.65402139164133
353000000,28.238489511572,-1.36153674358253
354000000,28.2600252240452,-1.03209397514493
355000000,28.2306307279575,-0.74588888115756
356000000,28.1647526368805,-0.409473235991447
357000000,28.1462012245061,-0.090484254210622
358000000,28.147303037144,0.253343887194024
359000000,28.1302373498954,0.619606294542556
360000000,28.1835035562667,0.921649486833572
361000000,28.1849994804213,1.2382753034014
362000000,28.1754281982078,1.48930176643474
363000000,28.2132267203771,1.80227486272172
364000000,28.2113439820694,2.17860904633537
365000000,28.2146488848789,2.43491123591074
366000000,28.2076304998662,2.69621107514281
367000000,28.2228651859477,3.01589470568071
368000000,28.191363120943,3.34624086654535
369000000,28.2063636203279,3.66149399626141
370000000,28.2280415279214,4.0064519467902
371000000,28.2185073707498,4.24382868055836
372000000,28.2351686910707,4.5745415517676
373000000,28.230992406536,4.90525364607166
374000000,28.2360714465779,5.23677597296349
375000000,28.3259876719378,5.45714861037052
376000000,28.2924102294802,5.75970428857901
377000000,28.335965266891,6.05929778245172
378000000,28.3182009020273,6.34944534845726
379000000,28.3452599206541,6.67962596273406
380000000,28.3235916059125,6.94438304059638
381000000,28.3403100853398,7.2205460626453
382000000,28.3435609001934,7.52871923659654
383000000,28.3526310124475,7.85939636969514
384000000,28.3604955048502,8.15432525565193
385000000,28.4134913933907,8.4840877074669
386000000,28.3995921256752,8.7353264290733
387000000,28.4063487043947,9.04186301030149
388000000,28.425288097807,9.3166441590503
389000000,28.4368505245744,9.64530813251933
390000000,28.38819920366,9.91275905997611
391000000,28.4007488099503,10.2583406747392
392000000,28.4454708759502,10.5709814850747
393000000,28.4522559654861,10.8830910678487
394000000,28.4942710409865,11.176482589405
395000000,28.5153873649811,11.5022247547465
396000000,28.5037604133273,11.8037864195213
397000000,28.5513841859265,12.0822345004563
398000000,28.557902487511,12.4028220911688
399000000,28.556648314887,12.7174200002092
400000000,28.5849089358912,12.9633728028733
401000000,28.5786457576161,13.3237307839786
402000000,28.5621400443945,13.6325487417267
403000000,28.6322707703536,13.926331969528
404000000,28.6122679051791,14.2483677588206
405000000,28.675703444004,14.5458644555263
406000000,28.6855030765683,14.9067987811431
407000000,28.6304526545699,15.2265019253404
408000000,28.6756629335471,15.561447559927
409000000,28.6755512832055,15.8838706234523
410000000,28.7819127726227,16.1945411097584
411000000,28.7681995238012,16.6021731010451
412000000,28.8344813537864,16.8857941565666
413000000,28.8800068415879,17.2156694440878
414000000,28.9060786419957,17.5565471711277
415000000,28.9981529004826,17.8506312947969
416000000,29.0077259321336,18.1870646166913
417000000,29.0697222322272,18.5048980664626
418000000,29.1144480673998,18.8406903371883
419000000,29.2398963134512,19.1651812894426
420000000,29.2177264974919,19.4185230569078
421000000,29.2469213823684,19.7801162344635
422000000,29.3453661818791,20.1040666784548
423000000,29.3403286806244,20.419834615442
424000000,29.4250860679674,20.7361000268265
425000000,29.4906537659992,21.002297645959
426000000,29.512287454688,21.3711147507748
427000000,29.5270570267813,21.6776644444603
428000000,29.5372654914884,21.9705193874555
429000000,29.5465829671779,22.3390565114071
430000000,29.6053519531535,22.6829413599039
431000000,29.6808934964059,23.0415228110532
432000000,29.7003900005512,23.3633900352522
433000000,29.7785143033905,23.6844828904743
434000000,29.8313520941654,24.0716053549796
435000000,29.8926261578693,24.3687751599303
436000000,29.945445938536,24.7928852148215
437000000,30.0825968499739,25.0645105955447
438000000,30.1166098713764,25.3301618691536
439000000,30.2474971006434,25.7354362015533
440000000,30.2652150993373,26.0219093234676
441000000,30.3098968712652,26.3088324571773
442000000,30.3607017304248,26.7374460607738
443000000,30.4277372863929,27.0748446170355
444000000,30.4971263835937,27.460656655552
445000000,30.5838730326054,27.7553736682385
446000000,30.7019551886169,28.0710396781665
447000000,30.7190678763328,28.4383198331704
448000000,30.8031154027723,28.7706629255352
449000000,30.9065586957699,29.1039044054838
450000000,30.9075686620886,29.423601076721
451000000,31.0201749925225,29.7553837150286
452000000,31.129464772096,30.0832991254251
453000000,31.2240529883962,30.5027237549095
454000000,31.3115622082589,30.8195177016076
455000000,31.4082617841373,31.1617033766612
456000000,31.4908186570787,31.5355892216868
457000000,31.6823037903613,31.8288746077075
458000000,31.787257416042,32.1217413734582
459000000,31.8219823289594,32.4680222081906
460000000,31.9123051648352,32.7733647438769
461000000,31.9695699014473,33.164113357256
462000000,32.0670880120794,33.4619966099075
463000000,32.1308332809581,33.8014544517705
464000000,32.2463186940933,34.154650773863
465000000,32.3207569492453,34.4726980619567
466000000,32.4321209964882,34.8076718556972
467000000,32.49163859793,35.0913545760511
468000000,32.6413755958035,35.459095368616
469000000,32.6559736795974,35.9258639671984
470000000,32.7593552120513,36.2246896152905
471000000,32.870848826171,36.6483874210533
472000000,32.9249614675426,37.0018450832721
473000000,33.0540088171637,37.3275251237832
474000000,33.1221219574215,37.722879280977
475000000,33.2259325395127,38.0385454022142
476000000,33.3963358603311,38.4155962666157
477000000,33.546224414497,38.7511279458458
478000000,33.6725055772663,39.0784679474928
479000000,33.7574545231634,39.4209063601511
480000000,33.8220140098325,39.8049728340877
481000000,33.9977290187498,40.1817287022939
482000000,34.0973603053788,40.5293333021989
483000000,34.2421800147703,40.9328496874594
484000000,34.3289266905609,41.3324514900285
485000000,34.6663292119719,41.7778488113398
486000000,34.7120047411487,42.0547961541589
487000000,34.8100101637571,42.4613248331066
488000000,35.0935849872759,42.8816875801819
489000000,35.2293203110474,43.1121434221648
490000000,35.3335886833393,43.4743732776467
491000000,35.4415848855667,43.8362934807057
492000000,35.5533677377016,44.1778945856416
493000000,35.7961317937261,44.5821086444337
494000000,36.0179020999735,44.8913799221877
495000000,36.111640868809,45.267661662085
496000000,36.2335171937778,45.6153780816621
497000000,36.3689551658997,45.9671640799574
498000000,36.5484004584402,46.2921412661287
499000000,36.7773137293347,46.7309719118581
500000000,36.8083502559502,47.0892969555707
