Freq_Hz_,S11_REAL,S11_IMAG
300000000,36.7022096865914,-7.55652033555916
301000000,36.7267129851053,-7.28803754847169
302000000,36.6817656800246,-7.01966434515079
303000000,36.6828480135227,-6.6044733860152
304000000,36.6393088296537,-6.32369537130002
305000000,36.5746217090014,-6.04643204416631
306000000,36.4906208544515,-5.65748908508201
307000000,36.4415775716248,-5.37281131686538
308000000,36.4229507139774,-5.05342550541816
309000000,36.3897135577403,-4.74871937214665
310000000,36.4009481777497,-4.4196658432353
311000000,36.3220539200033,-4.04740943931836
312000000,36.2710184166887,-3.74492172639007
313000000,36.2775351894247,-3.42488349630656
314000000,36.2512351428567,-3.05479556601867
315000000,36.2940908996727,-2.7758216096652
316000000,36.2718192362807,-2.39743903275354
317000000,36.2826949812828,-2.1004233815924
318000000,36.232139575133,-1.74324980432929
319000000,36.2499172876756,-1.42980529772519
320000000,36.1969636922897,-1.15174914124047
321000000,36.2406237800833,-0.810118664127391
322000000,36.1850622788455,-0.450462207506586
323000000,36.2006362804613,-0.205153951859002
324000000,36.1895382269639,0.173408137519022
325000000,36.2385158432664,0.475548849355746
326000000,36.209354446982,0.744888133224283
327000000,36.1494846113025,1.08754860837597
328000000,36.1952981081299,1.40330556185919
329000000,36.1908423656529,1.70968156353862
330000000,36.2075406962085,2.02980579703044
331000000,36.1792494031078,2.37552383361846
332000000,36.1713970037179,2.62034774853008
333000000,36.1806873448136,2.93076633672524
334000000,36.1558288644642,3.27756943619115
335000000,36.1702626985246,3.53712378289762
336000000,36.2183332466375,3.81773995587465
337000000,36.1781590676714,4.18377048351442
338000000,36.1628560705869,4.49492095028175
339000000,36.1870381489233,4.77980403506605
340000000,36.2349699800592,5.06321944063497
341000000,36.166480700641,5.3824808451791
342000000,36.0960466234134,5.63616950893079
343000000,36.0880087444529,5.96861490499964
344000000,36.139515424727,6.28641587240156
345000000,36.1459316957267,6.57912749426059
346000000,36.0881235897304,6.93316351676203
347000000,36.0438099667206,7.23186543722483
348000000,36.0788412847912,7.49659228683994
349000000,35.9981333680979,7.78752609903642
350000000,35.9400436448725,8.10746362518762
351000000,35.9182531865455,8.44017503223008
352000000,35.8912700647519,8.76735277187321
353000000,35.774064154889,9.07867689517071
354000000,35.7399407747979,9.44221634978389
355000000,35.6659399375478,9.8512571814826
356000000,35.6804358517955,10.2057211579123
357000000,35.6664592817347,10.6622836406294
358000000,35.6852159552197,11.1159400378533
359000000,35.7586918112419,11.5900615163556
360000000,35.786594087747,11.8914890346843
361000000,35.8547682942846,12.2617810977184
362000000,35.9408675690595,12.6198893937442
363000000,35.9718792656372,12.9616217194754
364000000,36.0028610599269,13.3338553184374
365000000,36.0550094380841,13.6583515896971
366000000,36.086561580152,14.0054138682533
367000000,36.1753033006969,14.3726907143375
368000000,36.2821540792889,14.7460869803703
369000000,36.293266707907,15.1104056005159
370000000,36.4046275414721,15.4975350059101
371000000,36.4446789547802,15.8699264892803
372000000,36.5341613460951,16.2068585085503
373000000,36.5875859812593,16.5442551224146
374000000,36.712959519063,16.8791006405342
375000000,36.8461462862725,17.2143907962586
376000000,36.8930875321345,17.5625905503723
377000000,36.9659650952405,17.9086515545271
378000000,37.1077830055384,18.2411231778447
379000000,37.202672580127,18.5136235871303
380000000,37.2889320156021,18.9277856215011
381000000,37.367556269375,19.2135933405339
382000000,37.4803873612218,19.5539125499655
383000000,37.5892954160558,19.9362176482023
384000000,37.7761210037956,20.2101486441091
385000000,37.7466488178282,20.463345017313
386000000,37.8719524026927,20.6914367456311
387000000,37.9518531022673,21.0333685623467
388000000,38.0329527751793,21.338618596804
389000000,38.0257474979696,21.7236941133431
390000000,38.1069559984335,21.971507964491
391000000,38.1910355813458,22.3110656809586
392000000,38.2724938922442,22.5606388084608
393000000,38.3687295030964,22.9435055811074
394000000,38.4103201204554,23.3347377616558
395000000,38.4979307989004,23.6711968609823
396000000,38.6130281768,24.0340756595554
397000000,38.6662091354956,24.2859351474344
398000000,38.8266202075443,24.6053597660437
399000000,38.9593867860145,24.9994952592037
400000000,38.9573202483443,25.2091709121328
401000000,39.0684731038361,25.5374094068939
402000000,39.0794873895703,25.9295940341496
403000000,39.18637367403,26.1317213565748
404000000,39.2309124140792,26.508510305591
405000000,39.2629799326563,26.8864254172007
406000000,39.2629656153832,27.1248044018376
407000000,39.3010600437049,27.6023899415038
408000000,39.3927905498741,28.097927063907
409000000,39.5280442916732,28.5041905764578
410000000,39.6883880786888,28.8504627445985
411000000,39.9353340655767,29.1098900909465
412000000,40.0158526348599,29.4211026592917
413000000,40.189499727603,29.7529551383057
414000000,40.2830222458408,30.0837520137367
415000000,40.3712423430186,30.4061194121692
416000000,40.4835898448194,30.7299698967978
417000000,40.5089427490016,31.1255133881281
418000000,40.6559733933986,31.4531929410143
419000000,40.8047333483076,31.7717355822123
420000000,40.8493081123668,32.06415779592
421000000,41.0951892779352,32.4281226257969
422000000,41.2321026778934,32.7284867826309
423000000,41.2598643039188,33.0499074764526
424000000,41.4132633213736,33.3216566285197
425000000,41.4902276533222,33.653157040839
426000000,41.5844128699048,34.0158462680331
427000000,41.6496498879801,34.29745787192
428000000,41.7817505685605,34.5991657073778
429000000,41.8303830177266,35.0520991599948
430000000,41.8844253786885,35.3221008351794
431000000,41.9741322519837,35.7669837074727
432000000,42.1380840117614,36.1072099895908
433000000,42.1989302745357,36.4349397443282
434000000,42.3214362419101,36.8069932515955
435000000,42.4270895685321,37.1153752993609
436000000,42.5255794799086,37.4633424041032
437000000,42.5335256389075,37.8878699463238
438000000,42.6600713964822,38.1666406499682
439000000,42.8585942906045,38.6155306341902
440000000,42.9546055926057,38.8646442011523
441000000,42.988408198942,39.3627753462035
442000000,43.1427957543611,39.7321618906739
443000000,43.1410437874902,40.1163212325765
444000000,43.3180938489749,40.4627918940542
445000000,43.4670490846154,40.8535906669986
446000000,43.6020063984569,41.2869405342276
447000000,43.6694792864036,41.6904301432769
448000000,43.7717021758182,42.0788163403725
449000000,43.9308011075604,42.55348655546
450000000,43.9797916094401,42.8908725136805
451000000,44.3068281695992,43.377610827943
452000000,44.4512749575683,43.6994800694318
453000000,44.6595235471702,44.150797924385
454000000,44.7854541422871,44.5086312946576
455000000,44.9466465246741,45.0414414769437
456000000,45.0767339714209,45.4212366966556
457000000,45.3119743163484,45.8113017682119
458000000,45.5481214855485,46.1392613442468
459000000,45.6224726714402,46.5195416087072
460000000,45.7664160110771,47.0446653008278
461000000,45.9835624388162,47.3946815097194
462000000,46.1665310680114,47.7883082537337
463000000,46.3605264394567,48.1884627238829
464000000,46.5554531677816,48.5758764841832
465000000,46.611396054915,49.0030649796975
466000000,46.8271758094357,49.3886123068114
467000000,47.1443371481324,49.8993567105442
468000000,47.294015552262,50.3036784846774
469000000,47.5032282655271,50.7214099752034
470000000,47.8076997220462,51.1133163028767
471000000,47.9106488809269,51.6058289708805
472000000,48.1232284420559,51.9697020104669
473000000,48.3537601013264,52.3987481498248
474000000,48.6365237307349,52.8408189199034
475000000,48.8390858079291,53.2555032752749
476000000,49.1087124197596,53.7937539881399
477000000,49.3324222242907,54.1742454074304
478000000,49.6440949532686,54.6814982383045
479000000,49.9397778320763,55.0280360332428
480000000,50.2439444385455,55.4400091804987
481000000,50.5008864402498,55.8467803197009
482000000,50.6291181150089,56.2709765090953
483000000,51.062122232854,56.7204474691866
484000000,51.2313068252575,57.2361815727457
485000000,51.7294996988167,57.6248563540631
486000000,52.0250377074103,57.9855700422864
487000000,52.5034586506807,58.4788799337355
488000000,52.8054598419464,58.7668830622616
489000000,53.299722926871,58.9812659001466
490000000,53.4744466489729,59.4162089929559
491000000,53.6854188218062,59.5740404955975
492000000,53.7869320405635,60.0736943653729
493000000,53.9846991744358,60.4366229279915
494000000,54.412887626373,60.8231033840026
495000000,54.4507542949112,61.3102035383086
496000000,54.9279059606951,61.7919009341452
497000000,55.2574898773535,62.2177822904804
498000000,55.712188427654,62.5195978558066
499000000,55.7842793904153,62.9445804463952
500000000,56.2067604666519,63.3397466180364
