Freq_Hz_,S11_REAL,S11_IMAG
300000000,37.7211673412701,-11.6394869448396
301000000,37.7035278719547,-11.3653163743384
302000000,37.6329016566371,-11.0490596208432
303000000,37.645504796827,-10.6741502230443
304000000,37.5463721803045,-10.4338744572035
305000000,37.4743228502827,-10.0693883854758
306000000,37.3977762669588,-9.74761556939904
307000000,37.321249917993,-9.46324563092429
308000000,37.2974879913368,-9.17009353840751
309000000,37.2241653309311,-8.84904441727764
310000000,37.1515262179209,-8.54646741731641
311000000,37.1270338859292,-8.15548361821235
312000000,37.117753074482,-7.83594483516983
313000000,37.0668789904457,-7.55161239813252
314000000,37.0718852820869,-7.24143994601692
315000000,37.0251915052322,-6.94815230544196
316000000,37.0331244120977,-6.62941152459617
317000000,36.9531781143282,-6.3015630305125
318000000,36.9448238984867,-5.96630321392128
319000000,36.878947727535,-5.68514701773181
320000000,36.7736212114948,-5.36001048183773
321000000,36.8123811701257,-5.0296451326273
322000000,36.7628075951196,-4.72843001911953
323000000,36.7299030947009,-4.4778004114213
324000000,36.6728482751528,-4.14309465183962
325000000,36.6453324323723,-3.77282256359048
326000000,36.6224083291203,-3.49194682332387
327000000,36.5683498770787,-3.19197159775832
328000000,36.5670729464635,-2.88700457756044
329000000,36.5318438202794,-2.54099769858644
330000000,36.5290559796703,-2.30027115324885
331000000,36.4642856858725,-1.91964943075805
332000000,36.4300945074111,-1.61824262059314
333000000,36.4116084215142,-1.3137648354944
334000000,36.3373478210135,-0.981814914054625
335000000,36.3905535221596,-0.714132849945156
336000000,36.2999424528032,-0.396096828386791
337000000,36.2922567100389,-0.0686843911625513
338000000,36.2111035118441,0.229473438854855
339000000,36.2521129130112,0.557833567592521
340000000,36.1964513005183,0.851863073882794
341000000,36.1476018540788,1.15137833006854
342000000,36.1281176752442,1.46575952715922
343000000,36.087350507256,1.81818359889818
344000000,36.0842841067601,2.11256988833792
345000000,36.0765845286363,2.38433802783021
346000000,36.0358420684972,2.69695140185218
347000000,36.0009701631924,3.04429038358797
348000000,36.0016921496934,3.33571512885494
349000000,35.895141927278,3.70435225743254
350000000,35.8583332307775,3.9536402606488
351000000,35.8151467777658,4.24731881566209
352000000,35.8186947083753,4.65022337758126
353000000,35.7024152547127,4.96231184910589
354000000,35.6779497465646,5.27837492306983
355000000,35.5891167118233,5.65930767515307
356000000,35.5760418554707,6.00424963987133
357000000,35.5729243309758,6.37431824877435
358000000,35.486773071395,6.85117573464669
359000000,35.5617045965763,7.22930782250926
360000000,35.5889507936007,7.5902096848809
361000000,35.6329041321279,7.9059172839896
362000000,35.6321101759535,8.3058013616511
363000000,35.6427380515763,8.65710626293616
364000000,35.6942637326975,9.0187301499394
365000000,35.7234915265826,9.37776212506553
366000000,35.8070876047862,9.70657936179571
367000000,35.7828061195565,10.1142412878426
368000000,35.8747071686249,10.4692851622222
369000000,35.95787723038,10.770256755838
370000000,36.0237064453223,11.1500823402657
371000000,36.0040397292635,11.4927880231899
372000000,36.0414093869254,11.8062272654597
373000000,36.1596026929855,12.1881091254797
374000000,36.176808822325,12.5047027435263
375000000,36.2804239357892,12.7814830658417
376000000,36.2433417683377,13.128055106337
377000000,36.3612045154414,13.4573087159647
378000000,36.395989394717,13.7987415406319
379000000,36.4660530367556,14.0795858814564
380000000,36.5245410100141,14.4474654436253
381000000,36.6131526042867,14.7195400665685
382000000,36.6776650350957,15.0525832988405
383000000,36.7577637557869,15.4339834721542
384000000,36.8385301231751,15.6460707917943
385000000,36.8531042536106,16.0174837179528
386000000,36.9057386157175,16.2755424000178
387000000,36.9694750472241,16.6203884533919
388000000,37.0292530128806,16.9194095833293
389000000,37.0185214600189,17.2627627057159
390000000,37.0443814938327,17.5748650977192
391000000,37.1159279842592,17.9262042107107
392000000,37.1989048216954,18.2460375086389
393000000,37.2744375339905,18.5585654658054
394000000,37.3207379209049,18.8844352807932
395000000,37.3969921510422,19.1856143595397
396000000,37.4620050309196,19.5524154115863
397000000,37.5152007407378,19.8593227527857
398000000,37.6584095019578,20.1420192593942
399000000,37.6323566292153,20.4854893313739
400000000,37.6889956814954,20.8342598303245
401000000,37.6869571736257,21.11467883095
402000000,37.8399101214067,21.4501091317345
403000000,37.8539264804801,21.7701623726255
404000000,37.897138592497,22.0785637744908
405000000,37.9108961571742,22.3817752587188
406000000,37.8539446582611,22.7430271262095
407000000,37.9391444217588,23.1518295576952
408000000,37.954226443942,23.6109874358559
409000000,38.1407232566357,23.9825824863794
410000000,38.2612294628685,24.3084973604132
411000000,38.2983378773385,24.6322620259693
412000000,38.397401684994,24.9918401967377
413000000,38.5015056766825,25.3576731687959
414000000,38.6340682450353,25.7033915900013
415000000,38.6318036653169,26.0568738213808
416000000,38.8141744068667,26.3721257034336
417000000,38.8484804954629,26.6770739157935
418000000,38.945238970639,27.1060017585278
419000000,39.0423850992238,27.4393683285947
420000000,39.1386900854856,27.7585897133259
421000000,39.2601054192813,28.082886821842
422000000,39.4277758936186,28.4950903546764
423000000,39.4296263395771,28.7767654607557
424000000,39.5489413555936,29.0875272224852
425000000,39.6050029424705,29.3786383226245
426000000,39.7635045542655,29.7522193337591
427000000,39.8132339482905,30.0976430571501
428000000,39.9039236745772,30.4271818959401
429000000,40.0023422839134,30.8095480211258
430000000,40.0615476336354,31.1354406644283
431000000,40.1476236628397,31.5558044233495
432000000,40.2726601851091,31.9546308511626
433000000,40.3801752667552,32.2722680905002
434000000,40.5551287969821,32.613631350344
435000000,40.6238256114908,32.994074869018
436000000,40.6857619398414,33.2628992380031
437000000,40.7515698442449,33.6342975320281
438000000,40.8842008571555,33.977541083548
439000000,41.0215250778279,34.3946010774385
440000000,41.1072327791313,34.6975140918661
441000000,41.1857742526759,35.1012003109192
442000000,41.3385407509522,35.5608780520895
443000000,41.4246777090942,35.8486097403419
444000000,41.5233862740126,36.1745724209897
445000000,41.738276892493,36.6105834092267
446000000,41.8296975367624,37.0411964857843
447000000,41.8865915347717,37.3651623265219
448000000,42.0933650562928,37.7010850504265
449000000,42.2565691745534,38.1276013460114
450000000,42.3267849942477,38.483037294662
451000000,42.5877887103195,38.8188715969335
452000000,42.6697159236546,39.1835171930158
453000000,42.8602558546838,39.6188242962022
454000000,42.9458588117558,39.9116089570271
455000000,43.1629969445457,40.3121331846474
456000000,43.2334029040705,40.7991327469725
457000000,43.5260467985478,41.0721297336695
458000000,43.7306542074498,41.4093427333501
459000000,43.8314478275134,41.6963731533074
460000000,44.0931917431547,42.29909786986
461000000,44.2442419822568,42.4828668710045
462000000,44.4201276386472,42.8721716104896
463000000,44.5163153194373,43.1591130948514
464000000,44.7796850855784,43.5477398678878
465000000,44.8670755751188,43.9405186863812
466000000,45.0261339983964,44.148932107108
467000000,45.2618293529949,44.6799191001592
468000000,45.3117901597195,45.0584542198794
469000000,45.5728588613457,45.434354008356
470000000,45.8249570444974,45.8170601522322
471000000,46.0313142816786,46.2005650183159
472000000,46.2022568278292,46.5991440392938
473000000,46.4298050265825,46.8940241823696
474000000,46.6867026752151,47.2372317872887
475000000,46.9043526610047,47.6507317644652
476000000,47.1179290265623,47.947858964126
477000000,47.3719625931635,48.2682361011665
478000000,47.4293901921453,48.6473692314278
479000000,47.6881519564601,49.0012496307597
480000000,47.9678292852163,49.4276524183277
481000000,48.1920455831916,49.7481655543942
482000000,48.430066074271,50.1374045055884
483000000,48.6458060584771,50.4573397973919
484000000,48.8321131641694,50.8529716025882
485000000,49.1250907806634,51.1839933391572
486000000,49.4396172825839,51.4969176710584
487000000,49.7318611178185,51.9521520311308
488000000,49.9768792013379,52.3051082549653
489000000,50.3583046589507,52.4723044629084
490000000,50.5717507135109,52.8123568436295
491000000,50.7313286590893,52.96539303847
492000000,50.7764785151508,53.3463577994965
493000000,51.052779937932,53.6603452141379
494000000,51.42805788776,54.0495703363584
495000000,51.4963397655343,54.4941154751206
496000000,51.8436577686024,54.7153580097937
497000000,52.0072038727122,55.0876532523594
498000000,52.391626825481,55.3177373329542
499000000,52.425836382632,55.6912415792449
500000000,52.812313169924,55.9868537988244
