Freq_Hz_,S11_REAL,S11_IMAG
300000000,34.0617438641409,-24.4721357154198
301000000,34.0434026867156,-24.1874006115784
302000000,33.8864763656147,-23.8490637335652
303000000,33.8403904243775,-23.5331059290721
304000000,33.8039405516142,-23.2538576653116
305000000,33.731384670919,-22.9224549976825
306000000,33.6234859543239,-22.6037233881392
307000000,33.5489589916584,-22.2930282400577
308000000,33.4997027266608,-21.978760672292
309000000,33.4611620757019,-21.6376688439327
310000000,33.3541073622091,-21.3228172300208
311000000,33.3050307583258,-20.9842551386523
312000000,33.1921279999509,-20.7365354364656
313000000,33.1588383153926,-20.3979079505456
314000000,33.0840881663962,-20.0153907798329
315000000,33.0952032164734,-19.7289452745727
316000000,32.9827745101144,-19.4384549069239
317000000,32.8922214614462,-19.1561256776435
318000000,32.8520762265469,-18.8253208920632
319000000,32.827395982205,-18.4902787623492
320000000,32.7482522722203,-18.1251479988775
321000000,32.6876324902719,-17.8708778129649
322000000,32.6575096555349,-17.5445829370288
323000000,32.6130976943185,-17.232585610358
324000000,32.5563893266493,-16.8942959306488
325000000,32.5075474601129,-16.5453592718831
326000000,32.427987070071,-16.310464737203
327000000,32.3814106146722,-16.0280275345171
328000000,32.3321982187796,-15.7303797248729
329000000,32.315824017132,-15.3605572665085
330000000,32.2660817159894,-15.0424093667449
331000000,32.2058656902572,-14.7416407667531
332000000,32.0966166838042,-14.4008193450711
333000000,32.0819907067347,-14.1243961826347
334000000,32.0522683918957,-13.8237991204647
335000000,32.020148846188,-13.5023856027937
336000000,31.9818128896671,-13.1724953360977
337000000,31.9027169930985,-12.8813190588974
338000000,31.8894091870968,-12.5694901989373
339000000,31.8111835940038,-12.2749239638197
340000000,31.7367811240274,-11.9875848563136
341000000,31.6683114392438,-11.6688331072675
342000000,31.5921927690435,-11.3800492995918
343000000,31.526331260661,-11.0195051077009
344000000,31.4893314791625,-10.6950243149216
345000000,31.4416599163224,-10.3689282670563
346000000,31.44235672993,-10.0553787614124
347000000,31.3546669692248,-9.72851128720823
348000000,31.3157573738886,-9.42626294719849
349000000,31.2144679294778,-9.03989425669764
350000000,31.1749541683243,-8.68163591819286
351000000,31.1740863182686,-8.32000176357895
352000000,31.141282254456,-7.95448441817441
353000000,31.2015236857686,-7.62946634161763
354000000,31.1750100866825,-7.29689046802581
355000000,31.151285387433,-6.99652834838881
356000000,31.1321790037901,-6.69068502651245
357000000,31.0962218783802,-6.37809027824982
358000000,31.0690412361124,-5.98457907802566
359000000,31.0657550558884,-5.63247306952452
360000000,31.1167411190909,-5.27351384850805
361000000,31.1355654089714,-4.991888261596
362000000,31.1238902688033,-4.71087997651351
363000000,31.1428878144662,-4.37361315601237
364000000,31.1585819299983,-4.01246157849822
365000000,31.1534977507202,-3.74091368355502
366000000,31.1711819652761,-3.47963862401788
367000000,31.1763336240768,-3.13314558198838
368000000,31.1557146531444,-2.815413172878
369000000,31.1731613204912,-2.48661132341016
370000000,31.1546601474886,-2.1453063719198
371000000,31.1495880317496,-1.91577959348586
372000000,31.1470319978475,-1.55120210750572
373000000,31.1425083211386,-1.22388063863534
374000000,31.1753237049371,-0.928298085276736
375000000,31.1977834258593,-0.640224752791974
376000000,31.2526310855169,-0.369525413080751
377000000,31.2063069803076,-0.0478421337601032
378000000,31.2166304985023,0.258971949603994
379000000,31.2040444639269,0.542458398008165
380000000,31.2019353945391,0.830213321711123
381000000,31.2504462353018,1.20026386870044
382000000,31.3054600677827,1.45188157600035
383000000,31.2811765102867,1.7888656395764
384000000,31.3089627222094,2.07952179902087
385000000,31.3139636840685,2.40313360553415
386000000,31.3586505457193,2.69935331146924
387000000,31.3612784879483,3.00189730597672
388000000,31.3467594565537,3.28324390863635
389000000,31.3685940844026,3.59393178181385
390000000,31.3702179415886,3.88594743233404
391000000,31.379097909395,4.20785193512988
392000000,31.4068890503477,4.47737023917038
393000000,31.4179865449289,4.82218039134584
394000000,31.4473707370577,5.13353557983795
395000000,31.472140794716,5.4473560415448
396000000,31.4637661556073,5.76326752695415
397000000,31.5077295285652,6.03159738934562
398000000,31.5031466594614,6.38900939259163
399000000,31.5108263101334,6.60914034754214
400000000,31.5665559107423,6.91556860871559
401000000,31.5575476411834,7.27826949999012
402000000,31.5625226739525,7.59741122619196
403000000,31.5744207137702,7.89042827872863
404000000,31.5870645902319,8.19601998656767
405000000,31.6629690858921,8.51419322485679
406000000,31.6459463926026,8.8238630747277
407000000,31.6278446192851,9.1897073289833
408000000,31.6569529212513,9.50523189723211
409000000,31.6291210785806,9.82837012656477
410000000,31.7301608131322,10.136352807307
411000000,31.7160772111239,10.51335094744
412000000,31.7587199278691,10.8214044345683
413000000,31.8415975504076,11.1805091246275
414000000,31.8712345243972,11.4930557116517
415000000,31.9214286054304,11.7805869224673
416000000,32.0082253970393,12.0998214014627
417000000,32.0154865950807,12.4305513084817
418000000,32.0727715310853,12.7189764474445
419000000,32.1386833202878,13.0963900288028
420000000,32.1657146253095,13.35546520781
421000000,32.1778555811733,13.6759728421137
422000000,32.2635111055418,14.0334547989528
423000000,32.2949163203762,14.3073410809344
424000000,32.3419338860212,14.6021199089728
425000000,32.3953681178244,14.9189897424251
426000000,32.4059907554552,15.2497328817481
427000000,32.4691131074368,15.573784697026
428000000,32.4983262178403,15.9143092146378
429000000,32.5105981534765,16.2227087082101
430000000,32.573347925348,16.6272348670473
431000000,32.643531296832,16.990574376048
432000000,32.7085353932326,17.2886922018771
433000000,32.7368268264843,17.6235948387222
434000000,32.8548564371215,17.9440167457654
435000000,32.8600488398236,18.2188402056469
436000000,32.9675989444153,18.5589893106701
437000000,33.0190887798436,18.9092166453149
438000000,33.0320259705486,19.2452008660701
439000000,33.1574437646238,19.5626725854417
440000000,33.2341796659878,19.8745394555897
441000000,33.2808643196339,20.166151763507
442000000,33.3180134861997,20.5483235836502
443000000,33.3683603684091,20.8539086788144
444000000,33.4078338718617,21.2269579982536
445000000,33.5622576970047,21.616606536596
446000000,33.6149975527321,21.8323778229472
447000000,33.7050351904307,22.199235889812
448000000,33.7772908745122,22.5344374925678
449000000,33.8391728185602,22.8389500602217
450000000,33.9012172374218,23.1645614989719
451000000,33.9578495942638,23.53686933048
452000000,34.0512779157178,23.8773497575676
453000000,34.0946096055416,24.2223648481217
454000000,34.1941200608923,24.492857856746
455000000,34.2836007559279,24.8837584298596
456000000,34.3573178954023,25.2686620710821
457000000,34.4889807227189,25.5884280630649
458000000,34.5555715765611,25.8522969837558
459000000,34.6746574882044,26.2056737847769
460000000,34.8033990741816,26.4996710794703
461000000,34.8117964066238,26.8402683144932
462000000,34.9518346641073,27.1258535354588
463000000,34.9378477675961,27.539121986222
464000000,35.0319613730302,27.8675297413536
465000000,35.1277364953714,28.1905171160474
466000000,35.2336473454114,28.4661155268324
467000000,35.3670063115102,28.8241375032785
468000000,35.4961727882661,29.1347108898794
469000000,35.5321456506295,29.5693365238694
470000000,35.6253673639673,29.905145669579
471000000,35.6814364820042,30.2792898694802
472000000,35.7662265870789,30.5983291774282
473000000,35.8706964703833,30.9491753159776
474000000,36.0088093775698,31.2288757663424
475000000,36.0667724653054,31.6471218425844
476000000,36.2336076019999,32.0042475171502
477000000,36.3585314183987,32.3221110760615
478000000,36.4521193308381,32.6247020065534
479000000,36.5258468334351,32.9865535957159
480000000,36.5629618000811,33.3564789157966
481000000,36.7190783610544,33.7836580102508
482000000,36.8835881559085,34.1327022948286
483000000,36.9714651645488,34.5268142294574
484000000,37.0956994132497,34.8950744882294
485000000,37.2670521585361,35.2453842282602
486000000,37.3893725288445,35.5941082632225
487000000,37.5270097554952,36.0104592290734
488000000,37.6956837657469,36.3707509115734
489000000,37.8929460735281,36.6375015575758
490000000,38.0432943234129,36.9888712954735
491000000,38.0974930268147,37.3166170063401
492000000,38.1872776088767,37.6809189335284
493000000,38.4061917786469,38.0600241043486
494000000,38.5946915892996,38.4273123834659
495000000,38.7009575074417,38.7688199843726
496000000,38.9165896855207,39.1741469032561
497000000,39.0255439756696,39.4888535041272
498000000,39.1071399094849,39.785135802593
499000000,39.2489913656157,40.1707544474431
500000000,39.3223893631637,40.6234400458766
