Freq_Hz_,S11_REAL,S11_IMAG
300000000,30.4027176897766,-38.9546817742816
301000000,30.3117887439883,-38.5763711193846
302000000,30.0958223460903,-38.1215426594967
303000000,30.0231557123182,-37.7508017681172
304000000,29.9766624533372,-37.3815648928504
305000000,29.8797580186333,-37.0300086913275
306000000,29.7260149871996,-36.696418449017
307000000,29.6469856103431,-36.2864015087072
308000000,29.5588572942441,-35.8570728427563
309000000,29.4813901867263,-35.5619022987242
310000000,29.3345696692435,-35.1733232225875
311000000,29.2948710591877,-34.750274992888
312000000,29.1627026634311,-34.4079165461193
313000000,29.1101289641771,-34.0454378081283
314000000,29.0301681341562,-33.6730025210937
315000000,28.9022773911961,-33.2829824675489
316000000,28.8545061737729,-32.8866569725944
317000000,28.6885165003041,-32.5043761732806
318000000,28.6824632384599,-32.1250996275543
319000000,28.5734917857095,-31.6602051998776
320000000,28.579339796416,-31.2855415828192
321000000,28.4340831446594,-30.9698230638307
322000000,28.3505898116083,-30.6225546089114
323000000,28.3406426351096,-30.2354773697849
324000000,28.2640807168296,-29.8159416504723
325000000,28.2619917719556,-29.4123737540869
326000000,28.0948643336375,-29.1538238589397
327000000,28.0424946453379,-28.7978463334746
328000000,27.9677379985628,-28.4227384503782
329000000,27.912736928353,-28.0051483006847
330000000,27.8140398635236,-27.5767884239749
331000000,27.8053800719374,-27.2429029633528
332000000,27.7098138929784,-26.8027241164803
333000000,27.6890272524123,-26.5004430506445
334000000,27.6406971079429,-26.1144394784695
335000000,27.6198748741095,-25.6279388848313
336000000,27.4966577406107,-25.3068142499837
337000000,27.4509914450378,-24.9844540157506
338000000,27.4233069346054,-24.5470219599321
339000000,27.3699732775012,-24.1686009572605
340000000,27.2660686155031,-23.7922450142086
341000000,27.2411499842606,-23.3800000531199
342000000,27.1787040487082,-22.9212624464729
343000000,27.2128732896301,-22.4767292823384
344000000,27.2497608683191,-22.1276922590741
345000000,27.1622380841082,-21.7287910357885
346000000,27.1523099070493,-21.3435013490324
347000000,27.191635268317,-20.8794478125873
348000000,27.1808771068839,-20.5604765834153
349000000,27.1968201183454,-20.088521585834
350000000,27.2632322646015,-19.6462014882253
351000000,27.3774950789573,-19.2975702255102
352000000,27.5018787960593,-18.981208977939
353000000,27.5100024992836,-18.7746297301689
354000000,27.5571297943996,-18.4871566560869
355000000,27.4794523679597,-18.1072743210613
356000000,27.4828653411694,-17.7911731457873
357000000,27.5273519426157,-17.4462649531915
358000000,27.5837715012811,-17.0836213887499
359000000,27.5781771777577,-16.8515852113427
360000000,27.6014410903672,-16.5697747269699
361000000,27.6284948697279,-16.2925926851162
362000000,27.5488920376406,-15.9727999091634
363000000,27.6030053735714,-15.716275806511
364000000,27.5793063889104,-15.3061022831826
365000000,27.6268930625411,-15.0444128652414
366000000,27.5322633276628,-14.7653281794966
367000000,27.5382313018944,-14.3921529812444
368000000,27.5088384893355,-14.0713706072079
369000000,27.4179805781022,-13.7594737293368
370000000,27.4350451484498,-13.4186783160234
371000000,27.4012837895292,-13.1481587666465
372000000,27.3718364466463,-12.7602478255019
373000000,27.4453022279542,-12.4508866546129
374000000,27.4129416596521,-12.1227396378935
375000000,27.3918761024326,-11.8253565677783
376000000,27.370259465125,-11.5421111010846
377000000,27.3575025356313,-11.2240039483138
378000000,27.3736117575177,-10.9087658985251
379000000,27.3412445988072,-10.5724996374509
380000000,27.2844747673835,-10.2408729417383
381000000,27.3145370090769,-9.9168010756514
382000000,27.310464385613,-9.57996583319797
383000000,27.2656033616554,-9.26041215193632
384000000,27.2621130705054,-8.91708319080645
385000000,27.281265539972,-8.55611281862533
386000000,27.2587597301332,-8.23921806724945
387000000,27.2566747923331,-7.92630780717723
388000000,27.2268790500518,-7.57121497716297
389000000,27.2101074755973,-7.23237846495213
390000000,27.2083312580512,-6.89772787172338
391000000,27.2124272077372,-6.52751431053857
392000000,27.2561257524573,-6.18041875876044
393000000,27.2759554521945,-5.86340129492742
394000000,27.2932589092469,-5.56827620687244
395000000,27.2797723905288,-5.24380224734126
396000000,27.2888065060364,-4.89076979771125
397000000,27.306321379903,-4.55462971597893
398000000,27.2795017708287,-4.24146838205642
399000000,27.2997718952751,-3.8757102749746
400000000,27.3100991981447,-3.55489720629124
401000000,27.2750155619819,-3.2028696049541
402000000,27.2920544985432,-2.83039454746107
403000000,27.3356538232176,-2.49938187574499
404000000,27.301863093066,-2.15877663718039
405000000,27.3442335582064,-1.7894252048921
406000000,27.375166279656,-1.4344391494912
407000000,27.3956047782849,-1.0441312813612
408000000,27.4136232550126,-0.734073837702094
409000000,27.4532912207402,-0.368117524313815
410000000,27.5679152196317,-0.0652082574404867
411000000,27.5540257722044,0.309963382909828
412000000,27.5872579511766,0.632448108635671
413000000,27.6756920243444,0.963273740286458
414000000,27.680960698089,1.26392992886889
415000000,27.7272302945352,1.6136707781473
416000000,27.8225997530148,1.96149549763325
417000000,27.8145977642605,2.3054929638369
418000000,27.8035089522204,2.5688966546372
419000000,27.865282832955,2.91502655569364
420000000,27.9136150567563,3.25586691038824
421000000,27.9236947361246,3.63148370039269
422000000,27.9644566186722,3.98007143070324
423000000,27.9739336444672,4.23786696443553
424000000,27.9698060825421,4.63007790632651
425000000,28.0266233165607,4.97191113385592
426000000,28.0496388032964,5.32157383537847
427000000,28.0960950628538,5.64179240441952
428000000,28.1302588319774,6.0822478629535
429000000,28.1857471054659,6.39540783930742
430000000,28.2647063126008,6.75796208177823
431000000,28.3562041025444,7.16583735462309
432000000,28.4136028943671,7.43185495328831
433000000,28.4399953795234,7.77533533691814
434000000,28.5026514793536,8.14545176200741
435000000,28.5569221366346,8.52733145070163
436000000,28.6425817354093,8.80505930142067
437000000,28.7373934600241,9.1953273206195
438000000,28.766504957121,9.49767346405125
439000000,28.8383776176245,9.83805171720907
440000000,28.8816390482627,10.1928834123738
441000000,28.9311578224231,10.5259836232381
442000000,28.990739655832,10.9081596356199
443000000,29.0068369830411,11.2006008332197
444000000,29.0958119028532,11.6034788587655
445000000,29.229350669048,11.936069505588
446000000,29.2465080091471,12.2329111623647
447000000,29.3781612425033,12.5982904160554
448000000,29.3671709946316,12.9440491311041
449000000,29.4433130156163,13.2653868599273
450000000,29.4652748995562,13.6462050361108
451000000,29.6085620261716,14.019193572238
452000000,29.7033415468134,14.3689812989568
453000000,29.7353425915463,14.6683998092835
454000000,29.8241823929255,15.083150891127
455000000,29.9134505865054,15.4202622565575
456000000,29.9848282116122,15.7620139725592
457000000,30.0854069887742,16.0533663446204
458000000,30.1555965497121,16.3533824671822
459000000,30.2371356445336,16.7906619095921
460000000,30.2977687906487,17.1344479061228
461000000,30.3454351559723,17.4996964503108
462000000,30.4282653003839,17.8196768277827
463000000,30.5737620449436,18.1917792990932
464000000,30.6357609910018,18.5518181695365
465000000,30.7320179048266,18.9177948053507
466000000,30.8238906526327,19.2502159935071
467000000,30.9148850317924,19.6232238310055
468000000,30.9930881927049,19.9629928965169
469000000,31.0765409617175,20.3519713784411
470000000,31.1691442469501,20.7687022266838
471000000,31.3481976927529,21.1350722021402
472000000,31.4109693930856,21.4541111209696
473000000,31.5544664133859,21.7998289750582
474000000,31.6654799514187,22.1551055284575
475000000,31.7670535890446,22.52638033492
476000000,31.8831422578677,22.8834194261081
477000000,32.0552401365484,23.1656116547402
478000000,32.153760175802,23.5256959535535
479000000,32.2353413255106,23.8868390999439
480000000,32.314400772995,24.2363563827335
481000000,32.4629522875698,24.6293366137013
482000000,32.6105346828151,24.9986429684665
483000000,32.7192159560069,25.3562200426949
484000000,32.8333531292335,25.738034323484
485000000,33.0336691194954,26.112599671651
486000000,33.1070973283864,26.4088366855797
487000000,33.2716611176381,26.8232401370079
488000000,33.4993870307081,27.1645738014672
489000000,33.5902353236436,27.505404797467
490000000,33.6585874956706,27.8555962551935
491000000,33.8380649163377,28.243285976416
492000000,33.948663761659,28.6230445203209
493000000,34.1320607116362,28.9230496630987
494000000,34.2689339811497,29.2488177850633
495000000,34.4464099581858,29.6675704691967
496000000,34.6063002600765,30.0157037157162
497000000,34.725331640029,30.3804144669241
498000000,34.8749150005716,30.7101829379961
499000000,35.0143531670804,31.1251252277416
500000000,35.1530776197823,31.5082854289973
