Freq_Hz_,S11_REAL,S11_IMAG
300000000,35.7208968109755,-31.5869835231682
301000000,35.683291160604,-31.1967881937098
302000000,35.5151035823983,-30.8509597941891
303000000,35.4684499195395,-30.4825361696589
304000000,35.4870677702715,-30.0826688044937
305000000,35.4207489062698,-29.7501344042555
306000000,35.2454902453823,-29.3809099275139
307000000,35.1488702897365,-28.9925091988052
308000000,35.1448008644821,-28.5705572980661
309000000,35.1115322406147,-28.2503371018368
310000000,34.9790914034847,-27.88528498179
311000000,35.0063046676136,-27.4470357848785
312000000,34.8911605605037,-27.1450943492738
313000000,34.8444961314857,-26.7202711714852
314000000,34.7693740439862,-26.3237695122816
315000000,34.7303515923498,-26.0011973836834
316000000,34.7596350425008,-25.6305059283313
317000000,34.6515475944186,-25.2121503929745
318000000,34.6316613665888,-24.8790025965479
319000000,34.564059559293,-24.5188183119321
320000000,34.5244397336863,-24.0857070782701
321000000,34.4401458133977,-23.7772852804502
322000000,34.412433457607,-23.4125263925924
323000000,34.3989048613697,-23.0317042699641
324000000,34.3648153492249,-22.6451747340525
325000000,34.3706821761576,-22.2803353416112
326000000,34.3095790283457,-21.9112649459659
327000000,34.2544675559481,-21.5988314106361
328000000,34.1768596317172,-21.3084319407848
329000000,34.1951705618525,-20.847618061145
330000000,34.1201403941848,-20.4634202795375
331000000,34.1300885054996,-20.1512986354455
332000000,34.0578939062481,-19.7156101122008
333000000,34.0843638633026,-19.4199547109829
334000000,34.0854124416319,-19.0707671997896
335000000,34.0289679503766,-18.6737516299899
336000000,33.9935539123836,-18.3338771710568
337000000,33.9775391961563,-18.0608621781832
338000000,33.9551972769914,-17.6449972823061
339000000,33.8734452973943,-17.3138286590159
340000000,33.8409160372289,-16.94638077709
341000000,33.839601291852,-16.5876418376152
342000000,33.768889756436,-16.2394600959948
343000000,33.7688345523642,-15.8482231960347
344000000,33.7740431853841,-15.4708046463586
345000000,33.7556751294564,-15.0894243972042
346000000,33.7223941168125,-14.7913512809922
347000000,33.677756243608,-14.4457761238857
348000000,33.6326946218286,-14.1153634444776
349000000,33.622723429597,-13.6843148656022
350000000,33.5044931263581,-13.2804661004228
351000000,33.5383582303222,-12.9810598917219
352000000,33.4958662264428,-12.5040035102421
353000000,33.5650107158246,-12.1786211794784
354000000,33.6221417488089,-11.8172986918642
355000000,33.56230836339,-11.4647220819666
356000000,33.492625223299,-11.0828679727396
357000000,33.5266620884675,-10.7375505327451
358000000,33.521886500258,-10.262493125861
359000000,33.5396565677376,-9.8683979046235
360000000,33.5719809253312,-9.54035116619701
361000000,33.632084779769,-9.1841766089925
362000000,33.6142615576747,-8.84841501340876
363000000,33.6313405435364,-8.51203099113213
364000000,33.6779935333228,-7.99858939341481
365000000,33.6619058954395,-7.7266994732467
366000000,33.7156312461259,-7.39649978077856
367000000,33.7332252548893,-6.99611761230926
368000000,33.7163490063866,-6.62525567659452
369000000,33.7696940045971,-6.17516486790285
370000000,33.8191246780703,-5.84855634699193
371000000,33.8810404074636,-5.51684643227752
372000000,33.9202504644617,-5.13048514122418
373000000,33.9673126256614,-4.77723220102101
374000000,34.0535079505372,-4.45973207368981
375000000,34.1336727823193,-4.14525167095821
376000000,34.1376983053868,-3.8337671875976
377000000,34.2110362840992,-3.48839623524488
378000000,34.2034187421761,-3.20441310649916
379000000,34.2094632201354,-2.83100206838756
380000000,34.2483099781743,-2.4905230320572
381000000,34.275355533787,-2.1789955047958
382000000,34.3088251078963,-1.80335588455909
383000000,34.3704479262291,-1.47352140177321
384000000,34.4251575559203,-1.10656483701105
385000000,34.4362838964306,-0.757465594462709
386000000,34.5208562879746,-0.401942655709898
387000000,34.5203905444648,-0.134934252038703
388000000,34.5812146952715,0.251636338234958
389000000,34.5689058728062,0.587539562365273
390000000,34.5977794127264,0.93908309076214
391000000,34.6331476628425,1.24877421233514
392000000,34.7298233993518,1.627756775496
393000000,34.7991267242251,1.97195090276916
394000000,34.8265493570603,2.33700313074084
395000000,34.9013405244988,2.71164144489229
396000000,34.9436072611135,3.0284750543637
397000000,35.0084907355794,3.33355862733411
398000000,35.0255752277528,3.70323192360672
399000000,35.0889342728082,4.00654510181757
400000000,35.1389039111363,4.35422060647474
401000000,35.1636718512476,4.74537039143949
402000000,35.2207319523481,5.0924069599849
403000000,35.2971692264995,5.43584244837193
404000000,35.3427689354929,5.72949590405318
405000000,35.3996514939344,6.09726104451758
406000000,35.4305427061037,6.46646559831556
407000000,35.4765088844148,6.88839284536877
408000000,35.5740515886696,7.25554596504879
409000000,35.5943556279759,7.58099483448762
410000000,35.6559718146982,7.96668655589886
411000000,35.7926471704447,8.30078431182364
412000000,35.8470365303852,8.67847012600011
413000000,35.9120071016176,9.01797886305229
414000000,36.0111375910909,9.39630659713087
415000000,36.0939244276383,9.74600279607294
416000000,36.2171710778199,10.0823795994461
417000000,36.2172232750985,10.4668845927827
418000000,36.3860162669575,10.8199941880983
419000000,36.4683871954248,11.1288489520284
420000000,36.5456844176586,11.4967905252555
421000000,36.640960624733,11.8590038409701
422000000,36.6600166970464,12.2412182494263
423000000,36.7571258635082,12.5685267724519
424000000,36.8715579670775,12.8333966047778
425000000,36.9365596266631,13.2409981655609
426000000,37.0432770487979,13.6342778998884
427000000,37.1429878685227,14.0132182489984
428000000,37.1958897098236,14.4373886435879
429000000,37.28989955846,14.7391614462241
430000000,37.4614772785233,15.118459201312
431000000,37.5654487800613,15.5809885703031
432000000,37.6847590324032,15.8872719319606
433000000,37.793605455735,16.2034354830705
434000000,37.9265598814367,16.6512443692421
435000000,38.0711743965735,16.9360495148693
436000000,38.2121274697858,17.2437018235635
437000000,38.3234020505902,17.6204423761938
438000000,38.4152295638715,17.9534877573277
439000000,38.5677426071018,18.3359223175235
440000000,38.6873087250485,18.6931548484796
441000000,38.7722962409164,19.0037578277024
442000000,38.9802703216697,19.4416769565978
443000000,39.014868222681,19.7137058318222
444000000,39.1464166243609,20.1048183609232
445000000,39.2468176866283,20.4538167590149
446000000,39.4330935922422,20.8132473198199
447000000,39.540108455598,21.1939960460614
448000000,39.6724840080059,21.5303006022751
449000000,39.8249272184137,21.8975060148326
450000000,39.9359763929854,22.249431745381
451000000,40.0584783582604,22.5894305837193
452000000,40.2095101374711,22.9166558324712
453000000,40.3107862026622,23.2838943711008
454000000,40.4804068553873,23.6186913138646
455000000,40.6104733585963,24.041200741226
456000000,40.772684403092,24.472969980387
457000000,40.9725456951119,24.7681575475612
458000000,41.0897939948579,25.1047019409557
459000000,41.2939471855577,25.5406006491152
460000000,41.5196093894125,25.8207773317377
461000000,41.6453553674558,26.1594616671017
462000000,41.8905618045348,26.5100291045863
463000000,41.9260253509906,26.8186145088715
464000000,42.1024289427525,27.1643250825918
465000000,42.2654602086799,27.5219457502877
466000000,42.4341201871168,27.8272069027708
467000000,42.6709177835266,28.2045523457637
468000000,42.8523530903981,28.5430224848501
469000000,43.0405421379736,28.9355177992369
470000000,43.1946165566433,29.2374749138396
471000000,43.3718689333941,29.669516783143
472000000,43.5250996437114,29.8866143185566
473000000,43.7770081542397,30.2799168107797
474000000,44.0129766964108,30.540557833574
475000000,44.0889755061185,30.8606192704673
476000000,44.2926661704843,31.1877647511025
477000000,44.4782486973209,31.5252986052088
478000000,44.622557348716,31.8154077773519
479000000,44.7708054822414,32.1891736072726
480000000,44.9744567335234,32.5618021610907
481000000,45.1961409137508,32.8213102823544
482000000,45.3775457654261,33.1797896564498
483000000,45.5377171356088,33.4834620020645
484000000,45.6450588402042,33.9038394736734
485000000,45.9604256775623,34.1998427054611
486000000,46.0451098790004,34.6134075094726
487000000,46.2580997024343,35.115514990357
488000000,46.6548154984627,35.3945643949856
489000000,46.8888686551161,35.6410330007016
490000000,47.0812728532152,35.9849996724408
491000000,47.2561877842264,36.3317625584416
492000000,47.4153082280084,36.6738855329388
493000000,47.6049191176311,36.875016592844
494000000,47.8455276833193,37.221576816721
495000000,48.1435134607225,37.6468402745456
496000000,48.3498787388175,37.9576269872459
497000000,48.5274398534234,38.3002696090672
498000000,48.6879713256891,38.5007240980985
499000000,48.9609021558164,38.8480603563472
500000000,49.053649207822,39.1684861228176
