Freq_Hz_,S11_REAL,S11_IMAG
300000000,32.924359882125,-40.575523966997
301000000,32.8691089988822,-40.2253190233081
302000000,32.6878083048361,-39.7929063430961
303000000,32.5800725974159,-39.4854184438935
304000000,32.5659772465349,-39.1730811568891
305000000,32.5412719540498,-38.8031824605427
306000000,32.386767177834,-38.544668904731
307000000,32.2811194532623,-38.1218962744612
308000000,32.2501611272679,-37.824566942976
309000000,32.181676964569,-37.4345613218422
310000000,32.0271564555135,-37.06850009073
311000000,32.0015363108332,-36.6856971453618
312000000,31.8243116843207,-36.4447253708011
313000000,31.8294793146079,-36.0935576900545
314000000,31.7084602926988,-35.7218449628555
315000000,31.6171065758239,-35.3981626251281
316000000,31.5829799364859,-35.0350927447483
317000000,31.4097816752769,-34.701824769099
318000000,31.4016391132816,-34.373297392894
319000000,31.3247486734798,-34.0240099613691
320000000,31.242027733015,-33.634324562491
321000000,31.1060976226703,-33.3376300361445
322000000,31.0760392698959,-33.0033492237415
323000000,31.0385386037436,-32.6523262062452
324000000,30.9492907413566,-32.2484867079136
325000000,30.9166154897905,-31.8961861395881
326000000,30.8438079637838,-31.6377790607968
327000000,30.7691791064064,-31.3624293290927
328000000,30.7057167247374,-30.9652471783122
329000000,30.630763307647,-30.6196917930764
330000000,30.5834665307854,-30.2355248448196
331000000,30.5373059174865,-29.9978026785317
332000000,30.4021482741953,-29.5190876267005
333000000,30.3886360155194,-29.3168598190035
334000000,30.3259331653983,-28.9870662831716
335000000,30.3234568795917,-28.6153127273012
336000000,30.2126869584482,-28.2147983115486
337000000,30.1631516810255,-27.9697599429391
338000000,30.0923847965432,-27.6243474249469
339000000,30.0295463502148,-27.2579105390072
340000000,29.9680278422196,-26.9116969807988
341000000,29.9237613120008,-26.5532563236346
342000000,29.8255138268718,-26.2256470079773
343000000,29.7652101058393,-25.8595313676743
344000000,29.7332469253939,-25.5050839852046
345000000,29.6850510685986,-25.1469415617838
346000000,29.6700872334878,-24.7720922946356
347000000,29.6353185549668,-24.4605300034196
348000000,29.5834791226324,-24.1495144033428
349000000,29.5521976010302,-23.7963854749269
350000000,29.4690837743292,-23.319757064338
351000000,29.4604887504713,-23.0485004130265
352000000,29.4685106326346,-22.6752661731282
353000000,29.5356970721653,-22.415906698016
354000000,29.5684874491166,-22.0517873089497
355000000,29.4936002095422,-21.738659436541
356000000,29.4688366668382,-21.3914764654156
357000000,29.4730869349278,-21.0978504185842
358000000,29.4862035958005,-20.7404951366216
359000000,29.5031143449096,-20.4362638303155
360000000,29.4802397138992,-20.1157624579005
361000000,29.4630392057626,-19.883978924984
362000000,29.4288646317892,-19.5848022117127
363000000,29.445354133146,-19.3145125361257
364000000,29.4571262689601,-18.9009749889698
365000000,29.4325709494977,-18.660951934267
366000000,29.3913814229897,-18.3741187382541
367000000,29.3961970408093,-18.044274010403
368000000,29.3068069993308,-17.7582797576628
369000000,29.2465648132257,-17.415466369149
370000000,29.3090526581569,-17.0833939876371
371000000,29.2145029710035,-16.8059541251369
372000000,29.1576298430136,-16.5288603292924
373000000,29.1811216658131,-16.194224885889
374000000,29.1532199618764,-15.8771837218724
375000000,29.1670277367977,-15.5985440178
376000000,29.1444102879139,-15.2706014502738
377000000,29.1223631705852,-15.0157874786649
378000000,29.0915519893337,-14.7147901964543
379000000,29.0418820513753,-14.3521954827401
380000000,29.0321658987193,-14.0491949070702
381000000,29.0563222832111,-13.7255524010023
382000000,29.0989380594145,-13.4241463120027
383000000,29.03549319284,-13.0961567631824
384000000,29.0178455475147,-12.7933600340065
385000000,29.0830410300767,-12.4608974191177
386000000,28.9988523661696,-12.2100835650119
387000000,28.9981329919006,-11.9183037562819
388000000,29.0391924486083,-11.5747151817441
389000000,28.9993891344233,-11.2485146667248
390000000,28.9730763961973,-10.9631583513115
391000000,28.9681653729748,-10.6668826492215
392000000,28.9772810653482,-10.3769640269056
393000000,29.0150074573559,-10.0714766273264
394000000,28.9749618744082,-9.73910832080178
395000000,29.0213730338769,-9.47097502536731
396000000,28.940628213598,-9.13875636428627
397000000,28.9721897807663,-8.8426491520846
398000000,28.974626451125,-8.53250514447843
399000000,28.9479373806964,-8.24612637922432
400000000,28.9888693481098,-7.96601331847059
401000000,28.99439158153,-7.65488490745895
402000000,28.9367742926646,-7.30095914669013
403000000,28.9278055741888,-7.01065632263746
404000000,28.9246963563815,-6.69235984065553
405000000,28.953993770417,-6.38365727399927
406000000,28.9675303636468,-6.06784713592769
407000000,28.9653317135569,-5.77374897779999
408000000,28.9784306012562,-5.46802625462741
409000000,28.9044170806707,-5.09465032358202
410000000,28.9854323688439,-4.81559901545668
411000000,28.9620693488115,-4.48147726475619
412000000,28.9993435856855,-4.15825878374839
413000000,29.0468312544044,-3.86362392638751
414000000,29.0377291418386,-3.50987256411451
415000000,29.0901966368685,-3.21520134209143
416000000,29.1429758032424,-2.93180006840177
417000000,29.1650800250422,-2.57789002882461
418000000,29.1760461314489,-2.33093273360426
419000000,29.1847079769208,-2.00707183893572
420000000,29.2174780085021,-1.69217752343975
421000000,29.1933455498025,-1.40754080585945
422000000,29.2520377808878,-1.05017897954042
423000000,29.2841394993847,-0.812646581367475
424000000,29.2679855683487,-0.494211527261554
425000000,29.3317519310497,-0.190140280294185
426000000,29.3251958885435,0.15819860789032
427000000,29.361217912838,0.416307737063649
428000000,29.4174898584644,0.754317612962862
429000000,29.3579522745577,1.0290936269957
430000000,29.4336885844348,1.36052691298576
431000000,29.4568073292001,1.74546275793234
432000000,29.5163882454481,2.01567046980933
433000000,29.4225073080043,2.34550665483179
434000000,29.5468906244302,2.63796188781673
435000000,29.5770123216687,2.98575579236369
436000000,29.6142154910677,3.25219889052893
437000000,29.6351083951937,3.54801183645272
438000000,29.6635807934261,3.87574400313571
439000000,29.7244980901388,4.21387690272962
440000000,29.7489813954375,4.51863112376853
441000000,29.7746516723987,4.83178739916705
442000000,29.8005054703097,5.15599798039481
443000000,29.8477446896869,5.46929395513021
444000000,29.8415229060859,5.82095699540964
445000000,29.9458996635139,6.1296464063811
446000000,29.9473004500777,6.41438392792817
447000000,30.0304090176906,6.71314475043132
448000000,30.0610658431833,7.03442477756151
449000000,30.0984042603379,7.33865292339091
450000000,30.1074448719861,7.63667929068612
451000000,30.1571686448237,8.00802273487893
452000000,30.2550615280085,8.35221598256784
453000000,30.3033688723663,8.64279815973862
454000000,30.3204706455441,8.92681015846145
455000000,30.3580614522128,9.2761330351278
456000000,30.438882809396,9.60802423662727
457000000,30.5555949465549,9.87160238824506
458000000,30.5650922343724,10.1660521748822
459000000,30.6490835750866,10.5285964428007
460000000,30.7220287490927,10.7550514579437
461000000,30.7372036579779,11.1236058938004
462000000,30.7703982943443,11.4044117577187
463000000,30.8298877407855,11.7113001902912
464000000,30.8805372093896,12.0406096447306
465000000,30.9009567332359,12.3553414410733
466000000,30.9684056134344,12.6753500332067
467000000,31.0278510525007,12.997501925712
468000000,31.1396690060496,13.2756790729174
469000000,31.157791939857,13.6694200115727
470000000,31.2074013833783,13.97669859111
471000000,31.3141590127297,14.3139759849145
472000000,31.3404636517887,14.6160803628845
473000000,31.4288746748034,14.9434554083674
474000000,31.490369404339,15.2085748556473
475000000,31.5215076141715,15.5644321174053
476000000,31.6033606838803,15.88341455903
477000000,31.7353896988656,16.2348716321596
478000000,31.7686809957996,16.4967582903961
479000000,31.8721859130169,16.7973727704477
480000000,31.8892256027618,17.1477185705263
481000000,32.008428344703,17.4464528954557
482000000,32.0498915230997,17.7505128311508
483000000,32.0956455137383,18.104804760258
484000000,32.1798777546479,18.443768224185
485000000,32.259221647178,18.7726125225347
486000000,32.3258772118751,19.0831521630591
487000000,32.4013436309787,19.4594861255628
488000000,32.5340725497995,19.7725467125063
489000000,32.6143884202192,20.0526076674608
490000000,32.7529654779242,20.350503292669
491000000,32.7955215389804,20.7336363138103
492000000,32.8515743765165,20.9999905451146
493000000,32.9380789544509,21.35668269972
494000000,33.1009517846904,21.6555990914338
495000000,33.1763510989629,21.9983218695276
496000000,33.253163967188,22.3184456946242
497000000,33.3553891645087,22.6682404785498
498000000,33.4835706445597,22.9080416438338
499000000,33.5695126386674,23.2397435166409
500000000,33.5958458782621,23.6128808714939
