Freq_Hz_,S11_REAL,S11_IMAG
300000000,35.6745975739585,-17.9299667531084
301000000,35.6320528093407,-17.7007479861701
302000000,35.5135370048952,-17.3309447737294
303000000,35.4828769136078,-17.0450632746447
304000000,35.4513654447744,-16.7016557157047
305000000,35.3959277459059,-16.3619015399726
306000000,35.3335551030465,-16.1471548826809
307000000,35.2728873517956,-15.7877071712788
308000000,35.2399312913729,-15.449187753326
309000000,35.2023231716398,-15.1618890503737
310000000,35.0825797692856,-14.8402733010196
311000000,35.0661895398778,-14.512480110947
312000000,34.9787370515453,-14.2124863669644
313000000,34.995106584654,-13.8539981485609
314000000,34.9326090210609,-13.5294671672856
315000000,34.8718312370571,-13.2032881509977
316000000,34.8139097167195,-12.9508455621627
317000000,34.7491252038896,-12.5889698611857
318000000,34.7387350763742,-12.2670186245743
319000000,34.6898057829853,-11.9395788333848
320000000,34.6539067441277,-11.5869132246582
321000000,34.6027503569382,-11.3118190099512
322000000,34.5795958983117,-11.0023507689823
323000000,34.5251234654921,-10.6269139060826
324000000,34.4877648769017,-10.3407101760166
325000000,34.4841271225658,-10.0173988551881
326000000,34.4202013508754,-9.69107134268287
327000000,34.4483715443782,-9.40664309961303
328000000,34.34283037287,-9.09712044232212
329000000,34.3878977993595,-8.81814192955639
330000000,34.3237283494294,-8.42278035786137
331000000,34.2869907581457,-8.14898627297441
332000000,34.2278096535636,-7.77068523367641
333000000,34.2357454605628,-7.56618321234787
334000000,34.1966381329035,-7.27649813223987
335000000,34.1984192436236,-6.92399847001243
336000000,34.0935692078049,-6.63091189466419
337000000,34.0619477058267,-6.28262141236659
338000000,34.0757128735836,-5.97285388016566
339000000,34.021272598905,-5.68368253686822
340000000,33.97092594428,-5.35046272941901
341000000,33.9716213209016,-5.00963385399925
342000000,33.8640591421544,-4.67171700025237
343000000,33.8644461223871,-4.37426853239726
344000000,33.8156140848154,-4.00494014690387
345000000,33.7934750036655,-3.67643980230898
346000000,33.7868398156737,-3.3860225608606
347000000,33.8014410693519,-3.0140366486348
348000000,33.7225040580313,-2.74168420166552
349000000,33.7008927698129,-2.36633514927963
350000000,33.5976019940527,-1.97965062470612
351000000,33.5766930870415,-1.64949771794814
352000000,33.6109838736224,-1.24883490811693
353000000,33.668030402854,-0.923734253863591
354000000,33.6924208154389,-0.585472552902266
355000000,33.6439580271685,-0.283894920689343
356000000,33.6629263168183,0.044979243627937
357000000,33.6901101219119,0.448581489751804
358000000,33.696047436602,0.767198977542071
359000000,33.6642203528226,1.09880950326896
360000000,33.7174115109878,1.40257361003753
361000000,33.7284344618706,1.75523651598762
362000000,33.7900891397535,2.08672130871884
363000000,33.8454301842964,2.36638202419562
364000000,33.8448458252427,2.79828494617189
365000000,33.8788389714266,3.00910676835102
366000000,33.9126880428714,3.32981182123983
367000000,33.8721032004889,3.70146117795752
368000000,33.9230736229565,3.96554692392228
369000000,33.9058012051131,4.3606092853476
370000000,33.9621162950223,4.69208605407465
371000000,33.9397486266708,4.9638432654041
372000000,33.9833281833968,5.32065659068077
373000000,34.0489069252589,5.65006657722827
374000000,34.098007365717,5.98660897866468
375000000,34.1517815072289,6.23879940551964
376000000,34.1608958657398,6.54946681732511
377000000,34.2299153997108,6.8410146884015
378000000,34.2456511085656,7.19504422731856
379000000,34.2623516192003,7.50297397292432
380000000,34.2751621634267,7.82452632750255
381000000,34.3186084794235,8.13412790598961
382000000,34.3693115359234,8.44158668781933
383000000,34.3997085262147,8.75827224656508
384000000,34.4857371501863,9.11372529718773
385000000,34.5017314781776,9.45957996894104
386000000,34.5799166486795,9.72048599475859
387000000,34.6377285306559,10.054199604135
388000000,34.6598012245585,10.3707844577068
389000000,34.6787791852287,10.6241477370984
390000000,34.6517246787417,10.9538854660317
391000000,34.6952635381307,11.2467400632864
392000000,34.7845617084468,11.6090607486229
393000000,34.8250712827821,11.9039474388816
394000000,34.8305505831059,12.2348418293861
395000000,34.9094953671497,12.536426987176
396000000,34.9317721158664,12.9065391384736
397000000,35.0246917696209,13.1612001185085
398000000,35.0937798758342,13.5532886913455
399000000,35.1290170137415,13.7681825894091
400000000,35.1692776156312,14.1170166659058
401000000,35.1884655259292,14.400111704737
402000000,35.2224566708919,14.7486171520788
403000000,35.2545407051386,15.0650815520354
404000000,35.2968377332606,15.3722432903669
405000000,35.3329033717521,15.7174917187607
406000000,35.426320788122,16.0428085898049
407000000,35.4010811332149,16.3947283978284
408000000,35.4285678256693,16.7715950845386
409000000,35.5299522774232,17.1393792187336
410000000,35.5910570028657,17.4387678558531
411000000,35.680501907331,17.7773922114801
412000000,35.7299870823952,18.1037907424408
413000000,35.8448339046697,18.4337570865616
414000000,35.838717314943,18.7984414928988
415000000,35.9483143493879,19.1541466642048
416000000,36.0684182691491,19.4458691637706
417000000,36.1354883476012,19.7817340486751
418000000,36.2454093112747,20.1443136825339
419000000,36.3224874066403,20.477230533411
420000000,36.3895865948965,20.8232440211576
421000000,36.4748159327413,21.1399316112472
422000000,36.575279681238,21.4898020182213
423000000,36.61533935504,21.8137434119074
424000000,36.725655484098,22.0763450907568
425000000,36.785209124599,22.3392116238735
426000000,36.9228259240465,22.7668365416304
427000000,36.9678917537873,23.0027541284878
428000000,37.0193133840068,23.3934770499746
429000000,37.0590519765163,23.7072235538046
430000000,37.1120270918594,24.1530404559277
431000000,37.2184034145289,24.4745241202608
432000000,37.2911226912199,24.851715500891
433000000,37.425240221493,25.166010873592
434000000,37.5338452276823,25.5793049789771
435000000,37.653983766403,25.8700882034231
436000000,37.8264162254571,26.2247413253006
437000000,37.9603781198805,26.5164104238001
438000000,38.0038093683554,26.8462739172291
439000000,38.1611845077324,27.2384673986582
440000000,38.2026890759254,27.4900624043568
441000000,38.3384443326813,27.8119954008302
442000000,38.4209135185085,28.2126439036122
443000000,38.5191378355715,28.5077464372664
444000000,38.5637152574518,28.9650479095765
445000000,38.7041658883406,29.3095566447256
446000000,38.8550152209544,29.576005222001
447000000,38.938926096286,29.9341718798573
448000000,39.0676223865483,30.3200008410129
449000000,39.2066240842047,30.7036382091097
450000000,39.2856773099691,30.9882444654379
451000000,39.442526403929,31.3536505095696
452000000,39.5823796651321,31.6856943198012
453000000,39.6726932913482,32.0579559924607
454000000,39.8874454618305,32.3310301206549
455000000,39.9404233134433,32.7357564235948
456000000,40.1188806097855,33.1197249942407
457000000,40.3217522981741,33.4059473255373
458000000,40.4482716232781,33.659555437005
459000000,40.59317090682,33.9821100444854
460000000,40.6715665336108,34.2222533857213
461000000,40.7664940308627,34.6801726923868
462000000,40.8968556030536,35.0246984762715
463000000,41.0457585562062,35.3545752747648
464000000,41.1051982719801,35.7002545510454
465000000,41.2847304765827,36.0982241160107
466000000,41.4550745540618,36.3962095293084
467000000,41.5579898729954,36.7786172345176
468000000,41.7626499109208,37.0639355704566
469000000,41.9200829913269,37.5796139964389
470000000,41.9787225285915,37.901888757519
471000000,42.2231449849493,38.2846770429637
472000000,42.2958732989033,38.6075638275336
473000000,42.5163511814119,38.8919150792906
474000000,42.6773038276408,39.257056517171
475000000,42.7911488227868,39.6223295658581
476000000,42.9885137883569,40.0355392508863
477000000,43.2046230723851,40.3512950652188
478000000,43.3493665321674,40.6759321614683
479000000,43.5128998013561,41.0411206075743
480000000,43.6904351815402,41.4217820610358
481000000,43.834163381631,41.7794097928452
482000000,44.1037408715187,42.1845648033656
483000000,44.1772396158075,42.5159387739671
484000000,44.3591236431754,42.8981910771492
485000000,44.6732485351605,43.365313941667
486000000,44.7874507727677,43.6515168110101
487000000,44.9867950008074,44.1114565239006
488000000,45.3799725659441,44.5413031585419
489000000,45.5497166772516,44.6741537710375
490000000,45.760024280981,45.0441741050304
491000000,45.9216148043313,45.4058799311
492000000,46.0884873846803,45.7799838730009
493000000,46.3364297043079,46.0299751808296
494000000,46.6008216154693,46.3807894766049
495000000,46.9011964755374,46.7188221645495
496000000,47.1267877800147,47.0965577656007
497000000,47.2546267002804,47.4492689044896
498000000,47.2633902337244,47.6707142747506
499000000,47.6156998250444,48.1196194811286
500000000,47.7961637340586,48.5408537079642
