Freq_Hz_,S11_REAL,S11_IMAG
300000000,33.0830068122053,-38.5042574747481
301000000,32.999625084027,-38.0882014994895
302000000,32.8314366997649,-37.7075960777541
303000000,32.7406419635332,-37.3221190050341
304000000,32.6734305862262,-36.9914050053973
305000000,32.6186769810559,-36.5285203844193
306000000,32.4552501515425,-36.1720620879336
307000000,32.3930137732051,-35.7826492720344
308000000,32.3048365341814,-35.3878054726895
309000000,32.2435107447908,-34.9962482672673
310000000,32.1030553121983,-34.5747346149018
311000000,32.0613534444639,-34.07256705232
312000000,31.9342534823277,-33.8149160072064
313000000,31.9478055809874,-33.4022990183787
314000000,31.8403021106603,-33.0002349510688
315000000,31.7152837038213,-32.6330048735465
316000000,31.6505590038917,-32.2232525448554
317000000,31.4923923931157,-31.7947882925294
318000000,31.5231975447483,-31.4138799950415
319000000,31.4548788157832,-30.9558379314436
320000000,31.4170440576441,-30.5352613954333
321000000,31.267187088187,-30.2164082947933
322000000,31.2935693437643,-29.7950211668354
323000000,31.2464431676511,-29.3933156391358
324000000,31.1801995825608,-28.9748894110901
325000000,31.1821347999886,-28.5642918453299
326000000,31.0620768824272,-28.2212447775534
327000000,31.0134194868396,-27.8402006087233
328000000,30.9834002508288,-27.4858201873715
329000000,30.9282034475656,-27.0580900984424
330000000,30.799948845638,-26.6564913958651
331000000,30.8153305288163,-26.2545834870514
332000000,30.7737256212871,-25.776445034229
333000000,30.7395539230922,-25.5088533610734
334000000,30.6920247789093,-25.159938020239
335000000,30.6541732655657,-24.7237446290433
336000000,30.5836367613987,-24.3258447291342
337000000,30.551210236069,-23.948569057246
338000000,30.5321645853804,-23.5567283786013
339000000,30.4301167942936,-23.1387450328055
340000000,30.3499857281314,-22.7751358738238
341000000,30.2971629286228,-22.3422391244334
342000000,30.2438669547223,-21.9007339937467
343000000,30.2415699573837,-21.4685024034167
344000000,30.2553339398057,-21.0571732503459
345000000,30.193819382827,-20.6029193304326
346000000,30.199156854085,-20.2642413215489
347000000,30.2082705092221,-19.8175806989612
348000000,30.1066569714646,-19.4314566830939
349000000,30.1642274223031,-18.9827490858358
350000000,30.0781814632992,-18.4468590766651
351000000,30.1940571152847,-18.1235531578367
352000000,30.2190317521563,-17.6576097412972
353000000,30.3341823431034,-17.3533281893729
354000000,30.3168205199378,-16.9671744226996
355000000,30.2879757875201,-16.5630308387399
356000000,30.2985669242546,-16.1553419435703
357000000,30.3628692400994,-15.7301379560558
358000000,30.422975760901,-15.2960341540462
359000000,30.5011322246316,-14.9556353998265
360000000,30.5999993437681,-14.617615431733
361000000,30.6346445274704,-14.2854332433589
362000000,30.6428813460077,-13.9117755870734
363000000,30.714721215152,-13.6224622437598
364000000,30.7440182030577,-13.1982110344137
365000000,30.7773814928707,-12.9339260798407
366000000,30.7802615883685,-12.6183133077182
367000000,30.7918845297134,-12.2374931554904
368000000,30.7497270305146,-11.9196578378973
369000000,30.7421825900882,-11.5450281142961
370000000,30.8048165741153,-11.1825674999789
371000000,30.7659561977699,-10.8087681465015
372000000,30.8158197179671,-10.4203484951543
373000000,30.9104289613248,-10.1076486798768
374000000,30.9385955670465,-9.76144545534521
375000000,30.9329479159773,-9.489847362627
376000000,30.9482180734196,-9.11507818481424
377000000,30.9827130129254,-8.7678532414526
378000000,31.0112980687193,-8.48473049047629
379000000,30.9956204364661,-8.09023646997017
380000000,31.0055308153341,-7.75493862306698
381000000,31.0655093241665,-7.4085654320064
382000000,31.082058381098,-7.06665279004672
383000000,31.0790826317686,-6.67072257536588
384000000,31.1480729493287,-6.35948176582178
385000000,31.1692894625416,-5.97315500964706
386000000,31.1780484521523,-5.631636801627
387000000,31.2099308238222,-5.31094263725233
388000000,31.2156622816974,-4.95507139800577
389000000,31.2714434084513,-4.59704682283561
390000000,31.2675780169741,-4.21270756152861
391000000,31.2824198752693,-3.88730909217254
392000000,31.3313318874342,-3.56936686828604
393000000,31.4219969051543,-3.19049303749451
394000000,31.4206237005046,-2.86969466404686
395000000,31.4041337700756,-2.4957141828322
396000000,31.4415480507437,-2.12986446709576
397000000,31.5178578065034,-1.84263367597644
398000000,31.5278085573344,-1.43876879769703
399000000,31.5312722898905,-1.15784251607718
400000000,31.5646616022404,-0.807539796679289
401000000,31.5954572651351,-0.391420258321769
402000000,31.597535393794,0.000602779170044498
403000000,31.6372344299033,0.30760745462906
404000000,31.6412413079825,0.742606111078291
405000000,31.6928905142818,1.11355356050417
406000000,31.750286931682,1.44077870821804
407000000,31.7964328101626,1.91424196427898
408000000,31.8514423856091,2.21354030211942
409000000,31.9155186453079,2.640316684485
410000000,32.0573034323651,3.00764988005288
411000000,32.0526905399561,3.33453249960366
412000000,32.109642975235,3.68892624953434
413000000,32.2100583947187,4.04168679384299
414000000,32.2401537623348,4.43482811402443
415000000,32.2986166940404,4.79175781643673
416000000,32.4244351547483,5.15698354436038
417000000,32.4850955880288,5.53250544707489
418000000,32.6044964016306,5.84209182247311
419000000,32.6796752839389,6.18754978760254
420000000,32.683418521263,6.53714238933056
421000000,32.7636103249922,6.85564780655439
422000000,32.825801251802,7.2347177719095
423000000,32.9048747974783,7.57628219376575
424000000,32.9172426877016,7.88660145147862
425000000,32.9545581482499,8.26965162974784
426000000,33.0225052752248,8.64996143346895
427000000,33.1361425167092,9.00900940204206
428000000,33.1204853324076,9.39259698491745
429000000,33.1375685500739,9.76470213103876
430000000,33.2436917107039,10.2084530863937
431000000,33.3437062166857,10.6176727537719
432000000,33.378458706686,10.9216600312688
433000000,33.4957608539666,11.2877270948753
434000000,33.6127725097038,11.7242493400995
435000000,33.6969902152444,12.0431807333172
436000000,33.8547661192061,12.4389359022793
437000000,33.8667828503218,12.8151481898153
438000000,33.969578556373,13.1966924055697
439000000,34.0877712197439,13.56753702085
440000000,34.1616264843968,13.9563658413246
441000000,34.2265279109845,14.3584976322893
442000000,34.367946071952,14.7449794140171
443000000,34.4734728131515,15.1145968480099
444000000,34.5475960031989,15.4959167587506
445000000,34.7328951409843,15.8070336888835
446000000,34.7559288374015,16.208092537941
447000000,34.8962997822608,16.5426199064699
448000000,34.9848614357673,16.9492102969246
449000000,35.1315813989778,17.2933097028663
450000000,35.2077874183084,17.6773311457832
451000000,35.3970877216849,18.0122308701959
452000000,35.4269057897408,18.3389897248601
453000000,35.5845982883888,18.7251272978472
454000000,35.6645298134885,19.0680026898965
455000000,35.7999744693015,19.4712906103419
456000000,35.9077257904328,19.8346190970845
457000000,36.0284762351696,20.1571002930713
458000000,36.0806308846294,20.5094804460882
459000000,36.1751110779255,20.9343135003817
460000000,36.347834285915,21.2490811358895
461000000,36.3973022871862,21.6854021973528
462000000,36.5406173515392,22.0306018569892
463000000,36.6468602616493,22.369061584601
464000000,36.7227845007548,22.7498015865629
465000000,36.8393758649111,23.2041171816611
466000000,37.0261549199503,23.5575689028188
467000000,37.1715533740892,23.9782955524071
468000000,37.3400984362193,24.2963745087869
469000000,37.4094488031418,24.7461476903646
470000000,37.552587553032,25.0944623548166
471000000,37.7412351010599,25.5330914645699
472000000,37.8319776086094,25.9125153065626
473000000,37.997068934308,26.2484102662794
474000000,38.1712171333292,26.6094804242699
475000000,38.2503608901401,26.9874689402858
476000000,38.4551791481474,27.4183540675348
477000000,38.6311645205466,27.7715833621052
478000000,38.7956060113032,28.0853070348123
479000000,38.8896674912305,28.4928332101039
480000000,38.9808111379161,28.9158378987573
481000000,39.1992826125092,29.2790439017076
482000000,39.3688369633164,29.6458310131842
483000000,39.4713460530257,30.0801049068913
484000000,39.6239869850952,30.4516201588333
485000000,39.8949866798912,30.896856315378
486000000,39.9989581826333,31.2688793296577
487000000,40.2038148689767,31.7388414432157
488000000,40.5063115190021,32.0702429444265
489000000,40.6438075952396,32.30080249663
490000000,40.8292344910057,32.7098979454946
491000000,40.9446859408167,33.0706306067516
492000000,41.0258785811878,33.4750076758725
493000000,41.2872135599352,33.8211637676081
494000000,41.5611022613521,34.2281340062742
495000000,41.8104885231276,34.5463428173407
496000000,41.9177794683383,34.920112493925
497000000,42.0733338162011,35.2954257034395
498000000,42.2236549672943,35.5914154945926
499000000,42.3198310290093,36.0036737319532
500000000,42.485663622176,36.4229681946409
