Freq_Hz_,S11_REAL,S11_IMAG
300000000,29.0800011556992,-87.012687764453
301000000,28.9098388730079,-86.3211869677248
302000000,28.513113377172,-85.6325006114684
303000000,28.4010056164444,-85.1564518644273
304000000,28.194490815019,-84.613400154775
305000000,28.0494504741388,-84.059288448897
306000000,27.5628025692466,-83.4207645446567
307000000,27.4071306768858,-82.7659953596513
308000000,27.4333883397018,-82.0422671308323
309000000,27.1226312519012,-81.4879816559707
310000000,26.9301311651138,-80.8119731704792
311000000,26.9753469910107,-80.171168426452
312000000,26.7964554363214,-79.8892881548958
313000000,26.6995492585706,-79.1934933418728
314000000,26.3864363258835,-78.5775086797371
315000000,26.1979610108952,-77.9749510102073
316000000,26.2265566132363,-77.198995856205
317000000,26.160213457123,-76.682187272266
318000000,26.1738136692688,-76.2125341150485
319000000,26.1026886636102,-75.4639357218487
320000000,26.0328360304989,-74.9196143706618
321000000,25.8451082126193,-74.4218155058312
322000000,25.839814956544,-73.8719718751714
323000000,25.8348068037666,-73.218268881884
324000000,25.827372432759,-72.7899507441642
325000000,25.8070521358314,-72.3175001627804
326000000,25.7287060951189,-71.8532791852344
327000000,25.4944444067906,-71.3499561669622
328000000,25.3472153989286,-70.7863330427222
329000000,25.2392007844322,-70.0946522411845
330000000,25.2419194908849,-69.3446143406541
331000000,25.3651917682814,-68.8369423438898
332000000,25.2620653383061,-68.2773081540999
333000000,25.1696861948186,-67.8629392435773
334000000,25.0631568696877,-67.3192646181289
335000000,25.1061017131835,-66.6446211737389
336000000,25.059253197395,-66.1620758538194
337000000,25.1784828664086,-65.5748264767366
338000000,25.0717269212413,-65.051645858163
339000000,24.9704536642232,-64.3878342676421
340000000,24.9786877590723,-63.7039676826655
341000000,25.1486749366525,-62.9149553870702
342000000,25.3442116334013,-62.3984112709786
343000000,25.5059933138612,-61.9488533920002
344000000,25.6856887413322,-61.4830542459414
345000000,25.7686445325054,-60.8758031586083
346000000,25.9386918215126,-60.2966037082898
347000000,26.1857739629054,-59.676891851175
348000000,26.522187680296,-59.3629733140807
349000000,26.9091727159038,-58.8001189232969
350000000,27.3249403248067,-58.4148516166814
351000000,27.7378183214284,-58.3865470583559
352000000,27.8825275794897,-58.418367495491
353000000,27.9800136062672,-58.3761378571968
354000000,28.0350968418357,-58.2152728024291
355000000,28.0026738195198,-57.9316011877618
356000000,28.1225393075637,-57.8096471215808
357000000,28.1392757318723,-57.7433580545691
358000000,28.0967238529452,-57.7014456017844
359000000,27.8755820679561,-57.6794164802366
360000000,27.7098887832843,-57.5153994807885
361000000,27.4626265742887,-57.3484467554699
362000000,27.1813660423216,-57.0150595197926
363000000,26.9334165229741,-56.7928614799201
364000000,26.8080061586492,-56.3648625436757
365000000,26.5764280030875,-56.0748492607635
366000000,26.2931664646496,-55.774867759523
367000000,26.1719172100265,-55.2796554428897
368000000,25.9100402901603,-54.8204273993819
369000000,25.733650065349,-54.4599741272382
370000000,25.6609854526896,-53.8851014304885
371000000,25.5579620185682,-53.4966260633857
372000000,25.5385776802481,-53.1179294545652
373000000,25.4502111726829,-52.6484456393547
374000000,25.2197811641508,-52.2736898204655
375000000,25.1631158169899,-51.8121661487846
376000000,25.0886201205272,-51.4109588830561
377000000,25.022318051951,-50.9775459305662
378000000,24.9186910802575,-50.620621502882
379000000,24.867158298495,-50.1551040554335
380000000,24.7656414666093,-49.6507635652643
381000000,24.7156085117624,-49.2527303246969
382000000,24.7628250261468,-48.7673694269205
383000000,24.7010828174475,-48.3048473888655
384000000,24.7495307401564,-47.8599281463507
385000000,24.6962210793549,-47.5433216716268
386000000,24.6285841322836,-47.1014739910142
387000000,24.6537695090089,-46.7534189374556
388000000,24.6057467501268,-46.2939128861266
389000000,24.5482819812072,-45.9276082874847
390000000,24.4811647207783,-45.511835919339
391000000,24.6123501278324,-45.1011465067579
392000000,24.566349374821,-44.7154409212807
393000000,24.500851779992,-44.3683138420014
394000000,24.4899022552733,-43.984126200933
395000000,24.4734426048456,-43.5504617168913
396000000,24.4028160965822,-43.1610641815389
397000000,24.4117590569902,-42.7111116758754
398000000,24.32349513322,-42.368529326931
399000000,24.3136443084036,-41.9193073010066
400000000,24.2701833789277,-41.5170859197584
401000000,24.2899593067259,-41.1004043401867
402000000,24.2961995451216,-40.5660100884694
403000000,24.323049019412,-40.2096132600046
404000000,24.4259746618217,-39.7741734737207
405000000,24.5798623109826,-39.4264277656896
406000000,24.614659897226,-39.1092288125228
407000000,24.5919117083834,-38.7556952984922
408000000,24.6259236097978,-38.4566704752533
409000000,24.6293491089026,-38.0887398441792
410000000,24.5610071848497,-37.7302522668919
411000000,24.53027111035,-37.4800987327258
412000000,24.5751034449767,-36.9495257410376
413000000,24.5413280937389,-36.6266361378945
414000000,24.5103470380028,-36.2208429547921
415000000,24.549568458328,-35.8819806933213
416000000,24.6470032118291,-35.5263600243263
417000000,24.5353626266151,-35.1493462297952
418000000,24.5305646854763,-34.9060320501327
419000000,24.4804168654596,-34.3778914969891
420000000,24.5388448966346,-34.0195496652933
421000000,24.4956703307727,-33.6462391204995
422000000,24.5702287895788,-33.2650985909077
423000000,24.5293398276155,-32.9032618888158
424000000,24.4579569490995,-32.5132875226609
425000000,24.5111711209605,-32.0755127372746
426000000,24.5241122964208,-31.7262898919246
427000000,24.5000092484927,-31.345045787893
428000000,24.5846952911798,-30.8648346056544
429000000,24.6577573972124,-30.4926323070403
430000000,24.7779245980688,-30.0805497656102
431000000,24.8554069883585,-29.6719417129835
432000000,24.9214757456187,-29.3476735678015
433000000,24.9176914993743,-28.9976365999629
434000000,24.9843095763499,-28.6741325791629
435000000,24.9681583194475,-28.3518794482239
436000000,25.0286554113613,-28.0119046850616
437000000,25.0239670867193,-27.6178044977106
438000000,25.1324899555226,-27.2261761321665
439000000,25.1238956487753,-26.8949475566463
440000000,25.1779166507287,-26.552877841107
441000000,25.1403750994355,-26.1311106968202
442000000,25.2661834007084,-25.7579798624089
443000000,25.2908012467738,-25.4040591759875
444000000,25.3201906746082,-25.1165482736768
445000000,25.3703182354415,-24.7189453053295
446000000,25.3719143433627,-24.4222970261151
447000000,25.4030234176172,-24.0003909571284
448000000,25.4777927493158,-23.6718870065087
449000000,25.4960387626931,-23.3365144504243
450000000,25.5295241167646,-22.9643291511709
451000000,25.598827690217,-22.5646432671104
452000000,25.6443032660988,-22.25551658216
453000000,25.6867626311162,-21.8687088805413
454000000,25.6341151564995,-21.4767498179611
455000000,25.7518137971578,-21.1303892426478
456000000,25.7858003619334,-20.7867773899269
457000000,25.8190183940937,-20.3964875385119
458000000,25.8546328194089,-20.048540507779
459000000,25.8987678966999,-19.6856490823294
460000000,25.9123109279971,-19.283934382645
461000000,26.0686576154005,-18.856945187519
462000000,26.1177330537484,-18.5848637693717
463000000,26.1796156784463,-18.1818110170473
464000000,26.2522722026513,-17.7798334756289
465000000,26.329989592521,-17.4361664005384
466000000,26.4078340232316,-17.1026206701732
467000000,26.4183632727791,-16.7845184673345
468000000,26.5096895948625,-16.4707302542551
469000000,26.594208770999,-16.081195583752
470000000,26.6433368048389,-15.6717433920975
471000000,26.7533550752358,-15.317680951226
472000000,26.7809817224758,-14.9465326157159
473000000,26.8764258150473,-14.603126460441
474000000,26.968536703733,-14.2450077068294
475000000,27.0820108084901,-13.8890608632019
476000000,27.0895478935125,-13.5256156865148
477000000,27.2340476123359,-13.202190490941
478000000,27.3061235475617,-12.8547757361422
479000000,27.3832256570425,-12.4707342514416
480000000,27.4706231773439,-12.1273282704589
481000000,27.5471968569847,-11.7871887344031
482000000,27.6493614560488,-11.4325963115214
483000000,27.771635830945,-11.0510183789196
484000000,27.8847934931401,-10.6932298791353
485000000,27.9438115282656,-10.3998315681221
486000000,28.0449579106662,-10.1078873652501
487000000,28.2018277145091,-9.74995960357126
488000000,28.2027787158718,-9.49362215903836
489000000,28.2509816720456,-9.08806703594844
490000000,28.3754441720758,-8.72612344975783
491000000,28.5006195398025,-8.37273336409107
492000000,28.6110778762466,-7.98890612389062
493000000,28.7013359944647,-7.73510353795814
494000000,28.8293127859903,-7.38111342595717
495000000,28.8886430667221,-7.08583047008709
496000000,28.9866518168586,-6.74578600367019
497000000,29.0775103513781,-6.4134928016704
498000000,29.1778418633104,-5.97741775536849
499000000,29.2764110101722,-5.61823627776991
500000000,29.4405365076721,-5.1949870051582
