Freq_Hz_,S11_REAL,S11_IMAG
300000000,31.2120282589616,-7.69552860361617
301000000,31.200210931463,-7.39312008306866
302000000,31.1459082656385,-7.1319781971494
303000000,31.0795978297164,-6.83225465722316
304000000,31.0557640561317,-6.55627006212269
305000000,31.0290106130904,-6.26265815308362
306000000,30.926720354364,-5.98421240132969
307000000,30.8888470942708,-5.69540919311702
308000000,30.8641379268751,-5.38541034970017
309000000,30.894416241214,-5.08322966258118
310000000,30.838581607576,-4.84451550937088
311000000,30.8090527011689,-4.52643624162189
312000000,30.764311322489,-4.2638977108633
313000000,30.738147667022,-3.9711555261212
314000000,30.6348406429547,-3.66752617675506
315000000,30.6195401227166,-3.37124245964283
316000000,30.6237649120389,-3.12205921385216
317000000,30.576107466147,-2.83865158663663
318000000,30.5544801826678,-2.54134460717199
319000000,30.4907847012241,-2.26024986083384
320000000,30.4720068571726,-1.97260251524661
321000000,30.4690609823779,-1.67508397766975
322000000,30.443919195633,-1.41801534900925
323000000,30.4209305282654,-1.09904088946618
324000000,30.383879329875,-0.827804623762367
325000000,30.349766027996,-0.543884403067742
326000000,30.3140393133456,-0.292504651020928
327000000,30.30681461923,-0.0157636931465907
328000000,30.2830500947182,0.284338539690235
329000000,30.2862934307936,0.553720756488525
330000000,30.2563752587335,0.857855486571098
331000000,30.2645112299317,1.09665057864276
332000000,30.1919807491284,1.43249135880118
333000000,30.1867428907595,1.66394170752605
334000000,30.1814280289169,1.89386886820965
335000000,30.1949013729873,2.26566361571284
336000000,30.1397876491531,2.50152889975679
337000000,30.164238697837,2.73505906214597
338000000,30.1311553989333,3.04370977028835
339000000,30.1066286267291,3.28339733099412
340000000,30.0724277448425,3.54345975903548
341000000,30.0331844512035,3.79876049882035
342000000,30.0325100994725,4.05599689818085
343000000,29.9101807033727,4.33543843799569
344000000,29.8856097968568,4.63186308510363
345000000,29.8701043004186,4.89415314310156
346000000,29.8826435594083,5.15580437754557
347000000,29.8759623545026,5.43464414813735
348000000,29.7859427536148,5.69612309269566
349000000,29.7688158015005,5.96185774926722
350000000,29.6534420863444,6.24411153170774
351000000,29.6465221070178,6.51425270802878
352000000,29.5665373670052,6.87480072931015
353000000,29.570525741091,7.16688395217077
354000000,29.5511392620761,7.49358665291493
355000000,29.5062841071332,7.77742996862428
356000000,29.5560519184751,8.04012354328531
357000000,29.4664481161152,8.33814359853846
358000000,29.3942449233625,8.60844890227782
359000000,29.4058885800157,8.98430459878818
360000000,29.4388491200041,9.28314952459287
361000000,29.3808426916516,9.60018288901039
362000000,29.3535697701162,9.89105036179496
363000000,29.3942803897239,10.159012961344
364000000,29.331660480587,10.5134903040547
365000000,29.3645524250148,10.8170595570452
366000000,29.4069331831159,11.1128728948418
367000000,29.376196552896,11.4075987530108
368000000,29.3336576780043,11.7176540514778
369000000,29.3180513078103,12.0959728798271
370000000,29.3640329294697,12.3805242559691
371000000,29.3722457793403,12.686684030477
372000000,29.3637914546444,12.9965354080331
373000000,29.377063642082,13.2935724441074
374000000,29.4306532634008,13.6539835386166
375000000,29.424782448273,13.8903498330603
376000000,29.5296253430982,14.2051584416953
377000000,29.4782890602461,14.5340285387361
378000000,29.5426353085994,14.8236712228668
379000000,29.5884228120771,15.1126028929228
380000000,29.5957531352074,15.4216133876141
381000000,29.6193852622632,15.6551829155523
382000000,29.628053770632,15.9978275557061
383000000,29.6566875919957,16.2813771078113
384000000,29.6931570573338,16.5777848512124
385000000,29.7187346804249,16.9132703896527
386000000,29.7532823778378,17.1498597942211
387000000,29.7505844674003,17.4963376862749
388000000,29.8077075995667,17.7471991870813
389000000,29.8164794615491,18.0327516789441
390000000,29.7912841067259,18.2963041151784
391000000,29.8382268214899,18.6411155164383
392000000,29.8540611111575,18.9235538985463
393000000,29.8512172089389,19.2373745905343
394000000,29.888059717172,19.5827028578661
395000000,29.9668700131057,19.8737460660412
396000000,29.9832231560368,20.1839869958396
397000000,30.0102941901709,20.4584263578853
398000000,30.0629737972139,20.8263146583333
399000000,30.0626963117816,21.0194027677787
400000000,30.1645712777927,21.3036954030766
401000000,30.0993739054231,21.6457552830246
402000000,30.1737932898319,21.9726912678842
403000000,30.2165999704535,22.27938998273
404000000,30.2417490874734,22.5126131327924
405000000,30.3218141663407,22.84919893981
406000000,30.2900014968202,23.1780447374428
407000000,30.2475464190049,23.4654185064866
408000000,30.2642118278204,23.7961307201904
409000000,30.3157410648063,24.1094427665657
410000000,30.3846017871313,24.4592667042907
411000000,30.4014588943757,24.8604084559625
412000000,30.4587911599233,25.1738716608469
413000000,30.5221826124057,25.4535360222119
414000000,30.5260121245906,25.8348806631714
415000000,30.6549134697917,26.097865533052
416000000,30.6884082611594,26.4472092283556
417000000,30.759096196086,26.7690829471819
418000000,30.8326755471814,27.1239583344159
419000000,30.9498876561636,27.435958888466
420000000,30.9844854419446,27.6909452152378
421000000,30.9884388324414,28.0297642284504
422000000,31.0650286714388,28.3935798095397
423000000,31.1623282575915,28.6733964909199
424000000,31.2318556939301,28.9503300199392
425000000,31.2581572608557,29.239581127883
426000000,31.3559294251503,29.5805713272445
427000000,31.4599346643603,29.8935590645654
428000000,31.3454671637979,30.2164939943881
429000000,31.382189045602,30.5280496118354
430000000,31.4098304183224,30.9260506301885
431000000,31.5105876240549,31.2710593701758
432000000,31.5766995101526,31.5710233343416
433000000,31.635471576504,31.8905732956151
434000000,31.7507615307663,32.3145664195139
435000000,31.8547417302309,32.636170417653
436000000,31.8880037428885,32.9510606267225
437000000,32.0225016458636,33.3090126846916
438000000,32.0513309605622,33.6179712651271
439000000,32.228159358111,33.9921684659196
440000000,32.2565816957929,34.293507286977
441000000,32.2757653696407,34.5901088051754
442000000,32.4062335171108,35.0029621760461
443000000,32.439710255967,35.2876826843065
444000000,32.5304689735747,35.726227164854
445000000,32.637248658191,36.0606864994656
446000000,32.7997321334361,36.3769844795391
447000000,32.8441573124418,36.7309126205226
448000000,32.9236681630859,37.0803381613189
449000000,33.0259056304663,37.4207352795666
450000000,33.1601942621783,37.7873806261718
451000000,33.2095715276182,38.1038745645217
452000000,33.3216903855787,38.4641549909203
453000000,33.3771523970089,38.8108791062908
454000000,33.5678931563268,39.0821120628676
455000000,33.6634609234453,39.5191922376423
456000000,33.7735724254458,39.9263793900252
457000000,33.893728370242,40.2634484725622
458000000,34.1266608439172,40.4322889813112
459000000,34.2608417160466,40.8775559269338
460000000,34.3940952216381,41.1846922524156
461000000,34.3834351551462,41.4269966189378
462000000,34.5803595742733,41.7653328862206
463000000,34.6157770368577,42.1097606160601
464000000,34.7229385205518,42.3728589596511
465000000,34.8273911774454,42.7792847755635
466000000,34.9492760083818,43.1075995557498
467000000,35.1044142278042,43.4373892814906
468000000,35.2039149737837,43.7889458621894
469000000,35.2375217295487,44.3141910404039
470000000,35.3781919272133,44.5265914669724
471000000,35.549908333248,44.958904792554
472000000,35.6291745156015,45.3232527265739
473000000,35.7952260073859,45.6471445026653
474000000,35.930027082475,45.9197997768276
475000000,35.9520477572988,46.3609893620908
476000000,36.2008063042779,46.7418137468578
477000000,36.3837157726357,47.1096896206027
478000000,36.5983714129993,47.3805524310468
479000000,36.6627292284785,47.7297025630444
480000000,36.7418764941603,48.1070673561137
481000000,36.9146322624746,48.5129743292485
482000000,37.1225054637971,48.9085660609889
483000000,37.2535039364343,49.2613180355974
484000000,37.2439789768132,49.6126263009854
485000000,37.6577405305887,50.0746466983409
486000000,37.7084794131262,50.3952071796281
487000000,37.9544986339173,50.8330463777653
488000000,38.2651664685589,51.3025851026946
489000000,38.434092653017,51.4137997638453
490000000,38.5633123687005,51.8273554938069
491000000,38.6893306849884,52.088794565531
492000000,38.8415079928388,52.533909899979
493000000,39.090005244009,52.7948771029454
494000000,39.2972329848841,53.1938033119495
495000000,39.469393759177,53.6120546924597
496000000,39.7067303804999,53.9558800352453
497000000,39.8396134837744,54.2956900591112
498000000,39.9448831649712,54.582022072214
499000000,40.1547346826802,54.9952442692178
500000000,40.2797056887799,55.3628572832862
