Freq_Hz_,S11_REAL,S11_IMAG
300000000,32.7521268848862,-22.1868435621534
301000000,32.6697135430706,-21.8843051681758
302000000,32.5966785860819,-21.6251766680059
303000000,32.555200048908,-21.3473782800891
304000000,32.4033897161281,-21.0458457783847
305000000,32.2999131585402,-20.7629330021893
306000000,32.2454066456586,-20.3889116160885
307000000,32.1222846213644,-20.0901240761274
308000000,32.0563198228134,-19.8186892193817
309000000,32.0388296681838,-19.5220111068737
310000000,31.914720139427,-19.2313671032086
311000000,31.8240573136427,-18.9026493238497
312000000,31.7706508668193,-18.6035800312558
313000000,31.7422194007153,-18.2873697345609
314000000,31.6842268770573,-18.0249485910851
315000000,31.6334876239601,-17.7505124775458
316000000,31.5325979360432,-17.4120503842814
317000000,31.4630188234758,-17.1600138400179
318000000,31.4056736957197,-16.8204240256982
319000000,31.3382209941519,-16.5195658078945
320000000,31.232291319452,-16.2521462036992
321000000,31.1656956444046,-15.9215058019369
322000000,31.0764195386507,-15.6317419437436
323000000,31.0492578288991,-15.3474906921532
324000000,30.9604427153238,-15.0019829563076
325000000,30.9305451426304,-14.7340227292621
326000000,30.8551160935184,-14.4681729168758
327000000,30.7958219177185,-14.1776271808665
328000000,30.7627929018197,-13.8549993311284
329000000,30.675878582998,-13.5272621253358
330000000,30.6457751613495,-13.2235875500603
331000000,30.5781697503932,-12.9330616237595
332000000,30.4992406595092,-12.6488297682666
333000000,30.4926167384417,-12.3342316017262
334000000,30.3986569846057,-12.0226050073894
335000000,30.3290955621948,-11.8094662298272
336000000,30.2420646316282,-11.4824251295086
337000000,30.1702335597252,-11.1270942494571
338000000,30.1388322142832,-10.8324057459943
339000000,30.0762260645002,-10.4828695619222
340000000,30.048420236638,-10.227334199151
341000000,29.9598956939866,-9.91198477377822
342000000,29.8675597884766,-9.6128200622943
343000000,29.8421040889288,-9.27375192539643
344000000,29.8528107029055,-8.97764213111525
345000000,29.7584633236585,-8.70715920835616
346000000,29.7386884846362,-8.38048417416363
347000000,29.6507305995898,-8.06456792402416
348000000,29.6468277096817,-7.72583765645252
349000000,29.607376845722,-7.38342391318055
350000000,29.5421869170146,-7.06085804002734
351000000,29.536389784112,-6.77119010564201
352000000,29.5563856733899,-6.41770559130242
353000000,29.4969181200251,-6.09745754920364
354000000,29.4361127941586,-5.79355424410087
355000000,29.4806941559668,-5.47794665842189
356000000,29.4725561100121,-5.17445182495768
357000000,29.4874429794228,-4.90508013843867
358000000,29.5158312786948,-4.54730335409215
359000000,29.5151382191491,-4.27028046125638
360000000,29.5073152270547,-4.02647921732183
361000000,29.4157501417194,-3.73936537239966
362000000,29.4434518685827,-3.42151098793116
363000000,29.4651723543569,-3.16598578591417
364000000,29.4171650212155,-2.87513270973265
365000000,29.3930046011182,-2.58464633825334
366000000,29.3709884427135,-2.31387700255655
367000000,29.3115749428653,-2.00759326024058
368000000,29.321139335972,-1.73075318997387
369000000,29.2405843397711,-1.43273912857195
370000000,29.2895810473704,-1.1481118189968
371000000,29.245613149502,-0.825077325986892
372000000,29.2522999460575,-0.523779968238101
373000000,29.2191185300747,-0.229872208245019
374000000,29.2350394114859,0.0298217069877549
375000000,29.2033585898873,0.356330435370132
376000000,29.2050699767421,0.629391143453743
377000000,29.2278474041811,0.929468082223884
378000000,29.2294894727735,1.22716447720977
379000000,29.2020875534408,1.57020077819574
380000000,29.218328002046,1.88714541983034
381000000,29.1967225256885,2.09976064311842
382000000,29.1970763352206,2.4435860978999
383000000,29.2117222802712,2.73520904987518
384000000,29.2216938112537,3.00650187608549
385000000,29.2001312087195,3.33272310336897
386000000,29.1735871746151,3.58841432044972
387000000,29.1833169701981,3.94993712274705
388000000,29.1749870430808,4.22738618092213
389000000,29.1873862496073,4.54941766165508
390000000,29.1917054501002,4.80692214967068
391000000,29.193480248744,5.132135701764
392000000,29.179106596899,5.43622446271022
393000000,29.2209565887893,5.75034705514783
394000000,29.2002888713175,6.0514422335142
395000000,29.2546387987201,6.34563898555165
396000000,29.2061170999465,6.65439420118428
397000000,29.2601754482173,6.91428390126586
398000000,29.267195398538,7.20208508218139
399000000,29.2465852328636,7.53974558138331
400000000,29.2727918665754,7.90061897709095
401000000,29.271723382147,8.15753544827677
402000000,29.3066688669075,8.47534685834761
403000000,29.3085623722817,8.7674625082928
404000000,29.3101529203796,9.0935762467129
405000000,29.2992148305184,9.41864304395503
406000000,29.3323368748435,9.75604988583205
407000000,29.3487029867723,10.0161963099978
408000000,29.3775168595778,10.4152582638185
409000000,29.4157533132811,10.7310101681488
410000000,29.4741112725437,11.0209379231508
411000000,29.5062676347926,11.3577594343501
412000000,29.5638770362725,11.6359866780687
413000000,29.5699907181556,11.9742739133641
414000000,29.6642722037244,12.2550670701285
415000000,29.6523633800938,12.5282485835212
416000000,29.7387365090222,12.8482807104826
417000000,29.7627578668174,13.1807795524261
418000000,29.7833096355484,13.4945458992367
419000000,29.8614242460749,13.7606339361568
420000000,29.8420360661056,14.0519996136082
421000000,29.9004459330269,14.3997627636098
422000000,29.9237167427711,14.6801928565237
423000000,30.0064276200232,14.9701681076125
424000000,30.0176753285436,15.264504363528
425000000,30.0066136162919,15.5366217001864
426000000,30.0861988374792,15.8847473157006
427000000,30.1021833140903,16.1686684274721
428000000,30.1603409344743,16.4644996916189
429000000,30.1899983015538,16.8114192895225
430000000,30.2203831346668,17.1159186555293
431000000,30.2529470217468,17.4484525756031
432000000,30.3148270574164,17.78418745448
433000000,30.3626916864391,18.0220908072537
434000000,30.3991638106895,18.3928019328939
435000000,30.4436504952983,18.6210414795257
436000000,30.508933729162,18.9561525932445
437000000,30.5203318155489,19.2603848259615
438000000,30.5414556403048,19.538975582076
439000000,30.6320548200613,19.8727614081484
440000000,30.648280693243,20.1515166335772
441000000,30.723227603556,20.4910051299241
442000000,30.7304477101742,20.758606668221
443000000,30.7639733761215,21.0841543580607
444000000,30.7792743215255,21.3843158753467
445000000,30.8640633540933,21.7336019987315
446000000,30.8979962507053,22.1149566605445
447000000,30.9224514981802,22.3077617829638
448000000,30.9755737726966,22.6065365053818
449000000,31.012385268124,22.9733062104724
450000000,31.0833447949585,23.285613816815
451000000,31.1431182789931,23.6281646640402
452000000,31.1460930104799,23.961193281425
453000000,31.237190232784,24.277386200768
454000000,31.3179620746996,24.5718750383619
455000000,31.3244893615554,24.922612342204
456000000,31.4295576038387,25.2780803247688
457000000,31.501116016643,25.6217711805909
458000000,31.5040059122154,25.967431458487
459000000,31.6280025243999,26.1701615721684
460000000,31.7266594053821,26.5855417454986
461000000,31.7275428646243,26.8983182573759
462000000,31.8501219149287,27.1782740885914
463000000,31.8599307050832,27.5048931029328
464000000,31.9674526917604,27.7978510435039
465000000,32.0042030409029,28.1311402632496
466000000,32.0929589759214,28.4201762264448
467000000,32.2256085024342,28.7635900949894
468000000,32.1983528362657,29.1273301530722
469000000,32.2143312078106,29.3380174405616
470000000,32.3908749776877,29.7154833518848
471000000,32.3954857392508,30.0452279679171
472000000,32.4454856112266,30.4062655910478
473000000,32.5379176346711,30.7711245885456
474000000,32.6616943611393,31.0554278732758
475000000,32.7251481725245,31.4179056267413
476000000,32.7974662054804,31.7156058490949
477000000,32.9200604310488,32.0565610101471
478000000,32.9472605025341,32.3929134880844
479000000,33.1026283561315,32.7252725237576
480000000,33.1817561775624,33.0272898766885
481000000,33.2769560633275,33.3504268850365
482000000,33.3884437525494,33.741203108268
483000000,33.4701743471303,34.021666372401
484000000,33.558573169064,34.3713527080673
485000000,33.6282453501936,34.6697955804089
486000000,33.731300552709,35.0575151591293
487000000,33.9053759509579,35.3805020187517
488000000,34.0051798747028,35.7450656256254
489000000,34.1530220973895,36.0339446255643
490000000,34.1988609190513,36.3391021433468
491000000,34.3299853902964,36.5946985086261
492000000,34.3505880693511,36.9676924596171
493000000,34.4483093904153,37.2751613562779
494000000,34.5799496742474,37.6503058304673
495000000,34.5826864837269,37.9764875361263
496000000,34.7732888953586,38.3709977646327
497000000,34.8684280823063,38.7913755375271
498000000,35.0388312976239,38.9782014406564
499000000,35.0502704353686,39.4514949770475
500000000,35.1827882324574,39.7969880065855
