Freq_Hz_,S11_REAL,S11_IMAG
300000000,36.5907192163894,-28.9159628616681
301000000,36.5365147346033,-28.571185908019
302000000,36.3972670626339,-28.1870549955712
303000000,36.3730277468065,-27.8624622609057
304000000,36.2686304621834,-27.4881879946103
305000000,36.2305882514098,-27.149265063471
306000000,36.1255762626364,-26.8145849013496
307000000,36.052216841746,-26.4653881098735
308000000,35.9810129758241,-26.0887578877475
309000000,35.8980278384795,-25.7666397538259
310000000,35.7822490332919,-25.4020240550572
311000000,35.7141008683352,-25.0338482797407
312000000,35.6472122957836,-24.7061733279102
313000000,35.6352232945107,-24.3404176450674
314000000,35.5103771875045,-23.9458304700458
315000000,35.4512957448332,-23.6104575099915
316000000,35.3670388679082,-23.2648542223189
317000000,35.3016827373653,-22.9264252262907
318000000,35.2809976451631,-22.5497118139524
319000000,35.2046109478137,-22.1727671244962
320000000,35.1392285653999,-21.8012281508412
321000000,35.0796461602162,-21.5124366175931
322000000,35.0327251287171,-21.1122362385052
323000000,35.0050853134473,-20.7939450771394
324000000,34.9492589675719,-20.4132284766264
325000000,34.9572006625269,-20.0212505001811
326000000,34.7799332828762,-19.6980471482145
327000000,34.8267570585035,-19.3598863376299
328000000,34.7110598120748,-19.0130121598024
329000000,34.7039004465498,-18.621540581581
330000000,34.6292200976812,-18.2413804776642
331000000,34.5467553554109,-17.9275393535282
332000000,34.4864561830653,-17.4425894439589
333000000,34.4880802074417,-17.1811394953443
334000000,34.4825700576839,-16.8751408774031
335000000,34.410854142841,-16.4645129630733
336000000,34.3367362831808,-16.0865883153035
337000000,34.3500022099196,-15.7659396860792
338000000,34.2444539987523,-15.3452376615724
339000000,34.288796355129,-15.0521522471576
340000000,34.160544570828,-14.7024815762688
341000000,34.0997980643111,-14.2994009509303
342000000,34.0735245258003,-13.91897913505
343000000,34.0621993626581,-13.5230242177378
344000000,34.0650934844699,-13.1564248446615
345000000,34.0292906776862,-12.7359395749161
346000000,33.9604187194163,-12.4224809758179
347000000,33.9583899068059,-11.9811191721936
348000000,33.9050467954987,-11.6565559867657
349000000,33.8846315073445,-11.2317875928935
350000000,33.8773509198886,-10.713356919576
351000000,33.9541958227987,-10.3632465013438
352000000,34.0435012232307,-9.95545450548838
353000000,34.1090016300684,-9.68768919681827
354000000,34.1698757116391,-9.30577892820929
355000000,34.1568951427213,-8.99948753687771
356000000,34.1866914531265,-8.66365826568691
357000000,34.1823516867731,-8.30566732316488
358000000,34.1967114645434,-7.91019979117896
359000000,34.2006429065309,-7.56313254338902
360000000,34.2070845908069,-7.22651884236417
361000000,34.287666121881,-6.90673620689571
362000000,34.2949903727453,-6.56357561916353
363000000,34.293443028843,-6.2555728103072
364000000,34.3854437637966,-5.78319059649627
365000000,34.4081932006219,-5.52453371135154
366000000,34.4234303626267,-5.23438537510069
367000000,34.4819906380893,-4.86207119102826
368000000,34.3998077836815,-4.54250703524191
369000000,34.460786700935,-4.15123826222145
370000000,34.4767315469284,-3.81050985004382
371000000,34.5224378988565,-3.47881103026919
372000000,34.5504172477369,-3.12848106882124
373000000,34.6381093966327,-2.82614745062389
374000000,34.6391689297108,-2.53283167309059
375000000,34.6735685751109,-2.20961237006867
376000000,34.6547631349046,-1.87287042435445
377000000,34.7331130383632,-1.49693444569721
378000000,34.7630360305246,-1.17735942633234
379000000,34.7969106053904,-0.850537287683232
380000000,34.8003288632053,-0.480463941652461
381000000,34.8476802893525,-0.173145194504612
382000000,34.8690752178996,0.173831956528515
383000000,34.8998612762405,0.528417988337468
384000000,34.9846233618505,0.874138972639946
385000000,35.0433778753039,1.22011049681607
386000000,35.043375917168,1.51352134834305
387000000,35.0946809561259,1.80848474084366
388000000,35.1320007725314,2.19048506074657
389000000,35.1579691710045,2.50118742309368
390000000,35.1887741612806,2.90629037229204
391000000,35.2520653854253,3.2086978983892
392000000,35.2845903071512,3.5904613860592
393000000,35.3807135944507,3.93769510748342
394000000,35.4721722579269,4.28584982096834
395000000,35.5482729041123,4.62738935282169
396000000,35.6102489757064,4.96569243507504
397000000,35.6651254422739,5.26938403099908
398000000,35.7588472197378,5.62425521569156
399000000,35.7425831579862,5.86681190902132
400000000,35.86996029921,6.17615627326071
401000000,35.8916896017485,6.54478388064841
402000000,35.9299311368775,6.8950140345477
403000000,35.9891281442993,7.23390383213582
404000000,36.0092089614892,7.56933687083649
405000000,36.1423697130732,7.91030357875301
406000000,36.1913598796794,8.27646019754783
407000000,36.2199650331847,8.6542990143531
408000000,36.3028685564763,9.0342155006919
409000000,36.4094270550281,9.35451607092168
410000000,36.5534630584848,9.72244679326409
411000000,36.6393672601415,10.0212576545418
412000000,36.6648907926081,10.3631489050622
413000000,36.7757739022465,10.6709903246163
414000000,36.8622195917546,10.9935464889988
415000000,36.8605047886434,11.3153955047643
416000000,37.0144310168307,11.7100441300089
417000000,37.1504754666697,12.0282085567259
418000000,37.2965818741724,12.3416760892323
419000000,37.3366659685766,12.6287708016406
420000000,37.4296501951204,13.0034565574876
421000000,37.4769360654293,13.3240050049172
422000000,37.596730893577,13.6704315821362
423000000,37.631678033801,13.9934514226597
424000000,37.7494173987102,14.3028104455537
425000000,37.8257539322178,14.640440307836
426000000,37.8808838976351,14.9813920868306
427000000,38.0561674734631,15.2793333696821
428000000,38.0568016077039,15.6717600315177
429000000,38.0725653140527,16.0334863347626
430000000,38.2540939203223,16.4425013713888
431000000,38.4061752658651,16.8315844055645
432000000,38.5116551817389,17.1083700166311
433000000,38.5642127106595,17.4508280553678
434000000,38.7058030841704,17.878164646441
435000000,38.9036763723399,18.1581471818288
436000000,39.0653871508873,18.4557920316076
437000000,39.2087071675761,18.8673060894262
438000000,39.2607125386825,19.1429773237356
439000000,39.4177398078765,19.4527511598097
440000000,39.5824483417325,19.8114168927317
441000000,39.6680876539664,20.1168923368364
442000000,39.7728204173244,20.4577971868266
443000000,39.8503473650019,20.7992281633556
444000000,39.9827751723669,21.1413700235866
445000000,40.1208890242864,21.5065633382137
446000000,40.2689583204773,21.8264807994775
447000000,40.4195528872757,22.1242181389113
448000000,40.4824371915453,22.4602598105974
449000000,40.6948380965847,22.8306804821971
450000000,40.8289661321204,23.1120201403044
451000000,40.9769476455467,23.4658741185545
452000000,41.0655937088139,23.7899607740698
453000000,41.221673399716,24.1404299706948
454000000,41.4016977542199,24.4520323172098
455000000,41.5431085734111,24.7893301892569
456000000,41.7239607473906,25.1363334896049
457000000,41.8713187809101,25.4129370252614
458000000,42.0728171085871,25.6279676959283
459000000,42.2236507280922,26.017776991443
460000000,42.3705380236235,26.2535033201941
461000000,42.4873264416281,26.6496959283028
462000000,42.6476402014961,26.865282702129
463000000,42.7138305860045,27.2324913827678
464000000,42.8319899787497,27.5794495790901
465000000,42.9890922956587,27.9246464806842
466000000,43.1565596619764,28.214349502894
467000000,43.3372492941426,28.5586612446039
468000000,43.5538830120922,28.7551396128942
469000000,43.6658988125731,29.2718390359595
470000000,43.7702824935253,29.5652692249229
471000000,44.0161173546726,29.8632993763339
472000000,44.12270455015,30.1370089895146
473000000,44.3399736256187,30.4153814421964
474000000,44.476970554994,30.7176029871814
475000000,44.5385104318304,30.9787322428616
476000000,44.7445709197478,31.3455890472606
477000000,44.8840425103337,31.6568309300487
478000000,45.0205204667565,31.9073810857952
479000000,45.1614262476799,32.2984461979726
480000000,45.2487749775065,32.6757290394335
481000000,45.4550941023222,33.0170586998416
482000000,45.6972570162312,33.2801005762618
483000000,45.8344164925374,33.7167255579599
484000000,45.9283566921211,34.0413610855796
485000000,46.2462819553498,34.3537564272343
486000000,46.3587757191666,34.7170748569255
487000000,46.5775069970642,35.2012277684607
488000000,46.8737706318651,35.4292161355428
489000000,47.0792176466339,35.66308628981
490000000,47.2271466943469,35.9265175861222
491000000,47.2870316117252,36.2433315684521
492000000,47.4305201441986,36.6210132770253
493000000,47.7021416486059,36.9331805380965
494000000,47.977670904527,37.236246118523
495000000,48.1647162053757,37.462411360243
496000000,48.3222458671291,37.8029167839977
497000000,48.5387197434022,38.1670086637168
498000000,48.5517238858273,38.3799483501974
499000000,48.7039732380049,38.7657151462151
500000000,48.7814186220878,39.2035601907243
