Freq_Hz_,S11_DB_,S11_DEG_,S12_DB_,S12_DEG_,S21_DB_,S21_DEG_,S22_DB_,S22_DEG_
300000000,-12.080054,-152.31296,-64.687805,135.6165,-65.905182,60.852272,-0.0028458,-0.22986054
301000000,-12.119434,-153.33017,-69.292648,109.34534,-69.774956,173.2177,-0.011776465,-0.28332731
302000000,-12.129836,-154.2569,-66.03981,-44.797535,-70.995117,79.022507,0.00015168912,-0.080982462
303000000,-12.138044,-155.32838,-72.792564,-25.429768,-70.565804,-86.84697,0.00091833703,-0.22032769
304000000,-12.163157,-156.2858,-85.148521,107.30807,-69.019867,-140.6378,0.0010767228,-0.15848193
305000000,-12.187649,-157.31148,-63.724724,159.97993,-64.084778,135.13016,0.0042116749,-0.26295179
306000000,-12.169258,-158.35173,-66.505661,99.390472,-64.017418,91.013023,0.003820641,-0.25089988
307000000,-12.18398,-159.37759,-66.276161,26.401035,-67.410713,-165.10066,0.0061611477,-0.15681903
308000000,-12.206347,-160.47162,-73.04834,25.992462,-65.666313,68.295364,0.0092790015,-0.26407218
309000000,-12.255245,-161.50543,-67.868256,-59.711617,-64.834045,98.963043,-0.0027447799,-0.26383889
310000000,-12.250295,-162.3819,-74.630692,-150.11061,-85.196274,-6.8317628,0.0021707725,-0.22866598
311000000,-12.265754,-163.52258,-70.08831,-179.43045,-75.729454,151.45917,-0.009762208,-0.23986465
312000000,-12.266006,-164.47948,-69.701019,60.335514,-68.472404,84.720062,-0.0010171788,-0.18171315
313000000,-12.277328,-165.53487,-81.442795,-46.561733,-73.680519,-146.47325,0.0063591483,-0.21141075
314000000,-12.245965,-166.67169,-72.015182,-94.676163,-73.823425,33.889915,0.00027075878,-0.21925302
315000000,-12.259649,-167.73758,-71.511444,95.071686,-71.471481,172.15497,-0.0098452298,-0.19413792
316000000,-12.279067,-168.6291,-73.392822,27.862764,-69.378059,124.80499,0.0057046255,-0.26253289
317000000,-12.271009,-169.66786,-66.025772,-21.754913,-75.136261,2.0431571,-0.0071052946,-0.19466455
318000000,-12.276172,-170.74721,-75.970619,104.39581,-71.222343,51.011204,-0.0088991299,-0.20509052
319000000,-12.255645,-171.78294,-73.37796,-40.860317,-69.516685,84.99337,-0.0073754769,-0.24639553
320000000,-12.258263,-172.82768,-69.290039,-169.25032,-76.377708,51.964935,-0.0033833194,-0.24948896
321000000,-12.268169,-173.90546,-68.55822,-41.13205,-69.559532,138.56581,0.0024450179,-0.25538573
322000000,-12.262803,-174.84286,-75.262115,86.810883,-80.094749,119.87376,0.0071546799,-0.27879912
323000000,-12.258689,-176.0042,-65.755692,-36.146713,-72.60125,9.0014935,-0.0016166207,-0.20134576
324000000,-12.24385,-176.99352,-72.326134,8.4689665,-62.112057,0.57873994,0.0046843863,-0.26036555
325000000,-12.229211,-178.02673,-76.813606,-0.68565196,-68.863678,-142.29597,-0.0082291747,-0.18304685
326000000,-12.211796,-178.94006,-74.651176,-164.89952,-81.674149,83.178772,0.0015901427,-0.23936011
327000000,-12.208726,-179.94289,-64.798805,144.02155,-66.640877,-88.985527,0.0032029836,-0.225382
328000000,-12.194834,178.97087,-66.792221,-126.97955,-72.651611,93.18541,0.0012288919,-0.25200766
329000000,-12.194244,177.99594,-79.40979,-61.734325,-68.585365,6.9882956,0.002727007,-0.13351573
330000000,-12.173358,176.89967,-61.702065,-37.003578,-78.51532,-91.826813,0.008603734,-0.26580754
331000000,-12.172935,176.03671,-76.030067,106.48315,-68.265862,26.834213,0.010682416,-0.28408116
332000000,-12.124529,174.84026,-77.743904,-86.701256,-65.967957,89.649605,0.0089803878,-0.24303511
333000000,-12.114281,174.01073,-65.199234,-157.46347,-62.562622,-151.11726,-0.00067127502,-0.24449186
334000000,-12.102972,173.18831,-63.261131,33.534241,-76.103897,112.84519,0.0081361001,-0.32436568
335000000,-12.094393,171.85556,-85.180977,-58.113628,-64.996063,102.72568,0.0044702762,-0.33243704
336000000,-12.053155,171.03313,-73.091919,78.076797,-65.160339,166.13219,0.0033612861,-0.2221126
337000000,-12.053894,170.19519,-68.184387,-66.561539,-65.108208,161.13696,-0.0049234536,-0.27111506
338000000,-12.018098,169.11528,-63.624512,63.910942,-66.611031,-156.68977,0.0056725689,-0.20183896
339000000,-11.989766,168.28072,-68.739761,-116.79946,-69.83786,158.54536,-0.013223768,-0.21265239
340000000,-11.953876,167.38336,-69.435104,48.533379,-65.448448,42.821388,0.0032490266,-0.21584253
341000000,-11.914578,166.51051,-67.117958,-148.68541,-77.714828,152.72472,0.011200898,-0.23753674
342000000,-11.8944,165.6165,-78.753754,79.515923,-68.117592,152.00233,-0.00076059636,-0.23895529
343000000,-11.8076,164.71669,-72.784035,128.62759,-69.681381,-48.413185,0.0022157913,-0.25458583
344000000,-11.769414,163.71385,-73.380814,107.5926,-70.100868,-46.533596,0.015700419,-0.29683027
345000000,-11.737714,162.8284,-71.308189,-12.201917,-68.897385,66.589775,0.0052123759,-0.22284515
346000000,-11.719405,161.93239,-66.101036,58.708965,-70.612564,-155.24329,0.0091524292,-0.27261671
347000000,-11.68836,160.99504,-74.747971,-101.4588,-74.207191,-54.233082,0.0039753001,-0.24403244
348000000,-11.61569,160.17912,-68.293427,-172.20647,-64.197113,-79.467949,0.0069153639,-0.27141207
349000000,-11.578772,159.30617,-68.457741,151.39302,-62.678921,-54.51733,-0.0020397755,-0.29725778
350000000,-11.48999,158.45708,-71.158714,96.021172,-66.31002,-97.253342,0.00071491161,-0.21598233
351000000,-11.455986,157.57663,-69.18972,-82.364716,-68.921463,-82.448189,-0.00050843018,-0.29987788
352000000,-11.37435,156.46631,-72.700073,112.12827,-63.7607,-140.20636,0.0023430835,-0.25197709
353000000,-11.340929,155.52185,-79.287857,-96.709312,-67.280182,142.21605,0.00035307027,-0.23053405
354000000,-11.290674,154.4931,-73.574272,19.923794,-73.12439,-133.70088,0.0087220548,-0.29288095
355000000,-11.232629,153.6311,-79.322487,133.10567,-81.676025,54.125904,-0.0075790319,-0.23940614
356000000,-11.221736,152.7606,-76.099472,75.921333,-70.798706,-147.5826,0.00783379,-0.2605305
357000000,-11.139075,151.90927,-68.069504,111.18948,-76.840408,67.202721,0.0063849967,-0.24552004
358000000,-11.068124,151.13812,-82.394852,42.276718,-67.429634,108.73994,-0.0012305344,-0.25763452
359000000,-11.020802,149.97525,-84.666039,81.754807,-66.374702,153.7238,0.00098769623,-0.32381368
360000000,-10.992918,149.03601,-76.348473,170.67293,-69.768257,165.26578,0.0008417301,-0.23867005
361000000,-10.919839,148.13777,-69.815926,-35.751225,-76.994766,55.932743,0.0042520179,-0.22491701
362000000,-10.864077,147.29739,-66.618469,1.1359457,-64.277725,12.465791,0.0050355243,-0.23160611
363000000,-10.841611,146.46408,-66.621223,-147.62492,-69.985756,127.15643,-0.0034978259,-0.27696919
364000000,-10.759033,145.48947,-68.413284,-130.44443,-65.627846,45.453846,0.0018349275,-0.16003187
365000000,-10.725826,144.57521,-84.982658,167.98573,-77.127167,38.387726,0.00020967129,-0.24635804
366000000,-10.697006,143.68015,-61.640301,-139.52797,-77.242081,-30.676607,0.007558851,-0.28961378
367000000,-10.63595,142.8735,-75.869011,-43.678101,-68.657288,144.5731,0.010721149,-0.18006076
368000000,-10.566996,142.04521,-82.315689,-126.52815,-78.04631,-170.49324,0.010447426,-0.24326909
369000000,-10.497745,141.00771,-70.147987,-94.110954,-65.33448,156.80441,-0.0039732424,-0.28760856
370000000,-10.469205,140.17191,-70.033081,-16.277637,-69.273842,50.319611,0.0076678987,-0.24552044
371000000,-10.420578,139.32603,-69.3815,-161.25864,-78.362305,-176.73808,0.011097103,-0.28560454
372000000,-10.363939,138.49742,-72.165794,-173.80186,-66.337868,-27.619991,0.0039116787,-0.28973088
373000000,-10.31789,137.68681,-74.148491,-166.81929,-67.364349,-175.38046,0.00084587105,-0.3176223
374000000,-10.276287,136.66998,-70.135063,-148.28284,-69.422264,-92.759155,0.0030172556,-0.30572718
375000000,-10.23217,136.05672,-69.482918,-90.079514,-74.564163,-1.3442525,0.013417177,-0.25104734
376000000,-10.217292,135.1147,-68.880035,-2.3806109,-67.24144,91.273926,0.005073274,-0.14211312
377000000,-10.138054,134.32979,-71.32412,100.47507,-74.743263,93.471184,0.0078523941,-0.25582987
378000000,-10.110398,133.51581,-71.998817,-147.95589,-68.139587,-130.87584,0.0062619587,-0.26937038
379000000,-10.075077,132.73241,-63.912842,27.133261,-67.777077,93.728439,-0.0065439823,-0.21367826
380000000,-10.021005,131.95271,-76.059662,118.69637,-74.200165,-162.08926,0.009499073,-0.31504086
381000000,-9.9866896,131.34677,-68.75592,-24.393665,-67.439285,-80.819122,0.0071272859,-0.21657367
382000000,-9.9262934,130.49802,-70.806122,-144.83426,-73.254494,32.185177,0.0037456371,-0.14743111
383000000,-9.8839197,129.77682,-75.051598,-28.94706,-67.199783,113.7496,0.0060804971,-0.19098896
384000000,-9.8416243,129.02193,-75.988518,-168.11038,-83.449585,-15.41194,0.0017593717,-0.21736781
385000000,-9.7876759,128.19571,-77.981361,139.60548,-65.590431,83.047272,0.0047738543,-0.22724509
386000000,-9.7552691,127.59806,-70.199928,87.595413,-86.070572,-77.668388,0.0063338173,-0.26743659
387000000,-9.6887293,126.79764,-76.370689,151.62248,-74.302788,-86.168091,0.01297845,-0.21409878
388000000,-9.660985,126.15033,-82.809059,173.32278,-68.106636,158.43788,-0.0052735838,-0.24807525
389000000,-9.6096573,125.49018,-64.3694,-124.51076,-66.332649,-95.69503,0.009726366,-0.17399052
390000000,-9.5509109,124.92857,-65.055618,-82.961456,-61.500507,-108.21837,-0.0018395876,-0.2339859
391000000,-9.5011024,124.10191,-64.209694,73.843887,-64.495293,-71.889229,0.0073976009,-0.2978597
392000000,-9.4525242,123.46022,-68.227493,116.01601,-74.157372,139.71753,0.011776114,-0.29412684
393000000,-9.3917551,122.7803,-69.211418,-19.678974,-69.495766,179.30138,-0.0034219197,-0.2725766
394000000,-9.3379431,121.99071,-69.677017,37.002567,-64.996002,-45.241253,-0.0015542128,-0.20385998
395000000,-9.3077602,121.27217,-71.265221,91.874161,-68.084846,-111.70651,0.0066884407,-0.20344482
396000000,-9.2536345,120.59864,-67.732079,-152.87366,-68.378525,-153.06598,-0.0084921643,-0.19717145
397000000,-9.2097149,119.99301,-71.944351,-84.968033,-65.871483,138.51985,0.001077758,-0.28514349
398000000,-9.1558208,119.16936,-71.382751,27.479944,-72.981468,67.816132,-0.0089847296,-0.21575788
399000000,-9.1188478,118.77629,-62.018391,-158.05974,-70.283257,-103.03738,-0.0054980344,-0.20346732
400000000,-9.095685,118.07362,-71.905304,26.551373,-68.839508,-141.06435,0.00080808473,-0.20463435
401000000,-9.0106716,117.47255,-66.932518,-52.205315,-68.944351,118.55576,0.0067897565,-0.18128714
402000000,-8.970746,116.73395,-69.450958,2.931896,-77.150558,173.04555,-0.0043064533,-0.17239943
403000000,-8.9250784,116.08195,-63.496166,116.98679,-73.609894,43.482201,-0.0026111258,-0.16680261
404000000,-8.8881474,115.5999,-70.069221,53.850277,-66.19017,-9.9982824,0.0044645872,-0.1792689
405000000,-8.8474674,114.85619,-79.607834,-170.57771,-68.917679,52.539177,-0.0060198102,-0.15373985
406000000,-8.7761297,114.27464,-70.987396,-30.15592,-71.470589,29.679546,0.0005880894,-0.22923185
407000000,-8.7100496,113.79002,-80.624672,22.092112,-70.536423,-145.88606,0.0016946825,-0.19619684
408000000,-8.6528368,113.15764,-73.82074,127.34264,-64.483719,-179.44142,0.0040197833,-0.20712398
409000000,-8.6086655,112.52119,-70.922325,-35.517124,-76.186249,12.391129,-0.012008521,-0.14672025
410000000,-8.5623884,111.80443,-72.826393,-67.385071,-71.929535,-30.861725,-0.0051447758,-0.22363666
411000000,-8.4925299,111.06846,-61.507179,59.367779,-75.114471,25.756184,0.0052909739,-0.21055448
412000000,-8.4499187,110.44658,-71.135475,110.4957,-65.148399,132.35977,-0.0077442164,-0.20754997
413000000,-8.4150963,109.88226,-68.889671,21.539015,-90.213013,-144.88557,-0.0034208833,-0.20895676
414000000,-8.3460741,109.22088,-64.856354,67.657341,-64.777962,-47.567295,-0.0057478985,-0.13932571
415000000,-8.3311749,108.6175,-64.623459,-2.6545775,-78.503952,152.73267,0.0058726603,-0.23112649
416000000,-8.2758598,107.98912,-71.517151,18.026779,-77.447014,-5.650857,0.011372335,-0.20022804
417000000,-8.235074,107.36885,-71.791946,-130.22716,-64.112106,-48.973869,0.014804808,-0.28822675
418000000,-8.1889925,106.69766,-77.988029,-7.4394736,-74.274719,-2.3896329,-0.0003318708,-0.20250449
419000000,-8.1613331,106.0513,-61.937279,-14.780645,-70.63826,53.483135,0.0008582939,-0.20586762
420000000,-8.1236925,105.60054,-65.734283,104.85339,-71.497742,76.420746,-0.0031864371,-0.20631027
421000000,-8.0637569,105.05708,-75.781555,-18.146477,-72.573441,-7.1444864,-0.012044602,-0.23358297
422000000,-8.016983,104.39518,-68.596642,114.88632,-64.813934,102.43919,0.0021935406,-0.10324772
423000000,-7.9900374,103.84634,-71.850357,115.80364,-65.506065,1.3133894,0.010506304,-0.23182566
424000000,-7.9570227,103.33922,-71.282532,40.45908,-72.599243,114.98204,0.0047319648,-0.20079075
425000000,-7.9119029,102.86832,-69.035721,-52.024796,-68.431084,-154.506,0.012503544,-0.16649213
426000000,-7.8741345,102.24146,-66.172798,-144.16519,-74.607063,128.73395,-0.0073907753,-0.17343993
427000000,-7.8426156,101.65555,-72.598709,-71.582809,-67.35704,21.692402,0.0013784679,-0.2231023
428000000,-7.7607722,101.31167,-65.80014,43.599194,-74.410912,-112.21325,0.0058235428,-0.12499752
429000000,-7.7150626,100.81526,-69.104538,39.969955,-70.357689,-83.747299,-0.0014899931,-0.21388701
430000000,-7.6528125,100.20995,-65.559166,82.11171,-78.829887,-44.338299,0.015439905,-0.19990247
431000000,-7.6157312,99.605225,-72.210281,-162.89775,-65.371132,-66.393242,-0.0065784627,-0.22900753
432000000,-7.5789146,99.108788,-68.114479,-127.07053,-78.089951,125.12978,0.018245397,-0.22730945
433000000,-7.5373454,98.598045,-68.180779,-160.20425,-73.016907,3.2663221,0.016394183,-0.20135818
434000000,-7.4901662,97.887062,-78.992714,-99.900223,-73.493118,-114.35181,-0.0004602769,-0.2082264
435000000,-7.4578123,97.335869,-74.347282,56.08173,-64.85807,139.96806,-0.0059220861,-0.24255665
436000000,-7.4122334,96.876541,-67.385536,89.426987,-68.426941,-35.280449,0.0020258811,-0.22586964
437000000,-7.3801045,96.254692,-63.828644,37.623543,-80.852577,82.909279,-0.004135699,-0.2236429
438000000,-7.3350244,95.81797,-76.565758,41.308872,-71.209854,146.82065,0.0046187062,-0.12204359
439000000,-7.3085427,95.141907,-65.07058,52.728977,-77.380272,-166.0443,0.00017291482,-0.17966485
440000000,-7.2649946,94.725296,-73.770683,33.531605,-76.962532,47.649857,-0.0025468904,-0.21413849
441000000,-7.2207174,94.328247,-67.143646,107.61272,-72.954201,172.1075,-0.0042624036,-0.182338
442000000,-7.1792035,93.671875,-71.408379,-148.81381,-78.608391,111.99342,-0.00066687376,-0.23059356
443000000,-7.1400366,93.283447,-69.874603,114.57398,-73.072205,-142.24759,-0.0024686698,-0.21003553
444000000,-7.0873957,92.650787,-77.00325,117.2947,-84.676071,166.901,0.0038165029,-0.19862723
445000000,-7.0543385,92.13504,-69.98719,-146.5351,-66.187866,-110.29613,0.0018675299,-0.20198543
446000000,-7.0342164,91.588707,-68.109093,65.007774,-71.442093,-88.743538,0.0072482317,-0.11805015
447000000,-6.9870038,91.12455,-71.879646,-71.318443,-67.228226,1.309929,0.010069866,-0.14552611
448000000,-6.9470263,90.634743,-69.571793,-65.69487,-73.621193,-41.076656,-0.00033342408,-0.13280202
449000000,-6.9126034,90.137466,-68.793083,17.951405,-73.32225,68.398674,-0.0039136503,-0.1278104
450000000,-6.8798041,89.583267,-74.749527,50.524254,-70.948509,1.5171038,-0.0021322328,-0.13309683
451000000,-6.8401814,89.176331,-75.285805,-101.89713,-61.687382,105.75613,-0.0012825802,-0.25094998
452000000,-6.8048081,88.662201,-66.482094,124.93356,-70.843071,-121.36088,0.0023586066,-0.15340213
453000000,-6.7621469,88.224327,-76.919044,30.398836,-68.373192,-176.48756,0.017485412,-0.10420489
454000000,-6.7532988,87.740326,-75.376205,-148.17149,-65.147156,6.0464134,0.0068099159,-0.081775218
455000000,-6.7041144,87.175209,-71.551079,-94.179077,-66.598953,-21.766624,0.01088744,-0.1571331
456000000,-6.6620202,86.634842,-73.657448,18.069571,-74.363525,-24.533234,0.011073865,-0.098367602
457000000,-6.6319637,86.164574,-81.65181,-130.23338,-66.292709,-160.44199,0.0051265364,-0.15905483
458000000,-6.6441069,85.765007,-69.587631,108.36737,-73.536514,-89.938866,1.0872093e-05,-0.16731405
459000000,-6.6003628,85.178825,-75.077171,-24.50178,-71.602272,-33.698692,0.0091338297,-0.18064292
460000000,-6.5765705,84.740364,-71.710564,-131.69186,-68.946205,125.74964,-0.0051240427,-0.097717427
461000000,-6.5402079,84.506577,-60.399097,-68.729637,-66.283089,61.051926,0.0050918902,-0.12836121
462000000,-6.5217381,83.984085,-71.918076,-83.613815,-68.753563,173.24359,0.0058990279,-0.18365161
463000000,-6.4782453,83.611458,-70.452843,-11.585362,-73.194717,-29.922592,-0.0040649632,-0.22231454
464000000,-6.4570928,83.25499,-67.047913,167.30113,-69.289558,95.803123,0.016172912,-0.15577458
465000000,-6.4155822,82.765907,-73.745506,106.87711,-71.997063,75.988327,-0.00028320172,-0.18337126
466000000,-6.3876743,82.340736,-69.499069,139.62286,-81.553589,-166.46262,8.0763471e-05,-0.26653466
467000000,-6.3643847,81.888092,-80.572853,74.822945,-73.785652,-163.03757,0.010128233,-0.13500863
468000000,-6.3302746,81.469833,-73.005035,138.72667,-63.143364,2.6431134,0.0091488129,-0.19211042
469000000,-6.2637253,80.95507,-78.84996,-173.83864,-70.967537,-168.99734,0.0036189032,-0.19798653
470000000,-6.2546158,80.636314,-77.095917,-11.191833,-64.581596,-25.199392,0.0048560803,-0.15005578
471000000,-6.2202511,80.094551,-63.707134,-69.268715,-65.606255,-57.527084,0.00022675516,-0.15577738
472000000,-6.1825976,79.70034,-63.889957,120.92896,-69.996101,159.78773,0.0073329955,-0.25299591
473000000,-6.1620884,79.270332,-65.372978,40.774471,-79.351524,107.24589,-0.00081341329,-0.12346562
474000000,-6.1441426,78.91581,-72.939919,103.3159,-70.153862,-66.918518,-0.00059205247,-0.20984693
475000000,-6.0896111,78.515831,-86.147408,-156.26234,-72.319687,38.707001,-0.00044707369,-0.12313724
476000000,-6.0726337,77.979271,-74.039909,-138.72713,-69.549156,-21.662123,0.010111704,-0.22598994
477000000,-6.0487566,77.51506,-69.58374,101.23285,-69.035393,132.00528,0.014156201,-0.17446779
478000000,-6.0412011,77.109215,-63.898956,-50.958858,-67.258766,-14.40291,0.010878662,-0.21804914
479000000,-6.0048885,76.768257,-78.772964,-140.43819,-72.100586,40.963753,-0.0044487105,-0.19246094
480000000,-5.9671521,76.395241,-77.072617,74.781639,-71.296204,-165.10025,0.012307888,-0.20547365
481000000,-5.9375529,75.926254,-64.736069,-166.8083,-80.332657,82.366882,-0.0017176147,-0.11980993
482000000,-5.9135427,75.442184,-70.21479,-0.032828517,-76.444122,-27.931541,0.0080467006,-0.21115986
483000000,-5.8856997,75.059181,-70.841637,163.2413,-72.112305,-18.672686,-0.0050273752,-0.1629843
484000000,-5.8417044,74.793747,-74.009827,70.599731,-71.866348,76.888748,0.013178206,-0.19578759
485000000,-5.8338246,74.108871,-67.239273,-111.66036,-74.479416,-173.37943,-0.00011622955,-0.2294101
486000000,-5.8010511,73.826317,-69.083809,162.21368,-82.628311,27.390358,-0.0032175232,-0.17333014
487000000,-5.7766109,73.305397,-74.182953,50.818245,-68.552948,-57.460434,0.0067075668,-0.2258438
488000000,-5.7555332,72.717506,-78.946121,-172.33885,-71.359756,51.684128,-0.011334972,-0.17962094
489000000,-5.760972,72.505196,-70.594231,102.55772,-68.73288,85.959854,-0.011383246,-0.18032551
490000000,-5.7264199,72.10775,-65.530319,117.90068,-73.100258,116.81873,0.0079996753,-0.097934984
491000000,-5.7094846,71.824677,-68.847557,31.721952,-62.09547,-21.970345,-0.0025916998,-0.16876651
492000000,-5.6741266,71.394974,-67.37368,57.422829,-67.264511,79.432823,0.0013080798,-0.1987119
493000000,-5.6702561,71.024704,-67.728409,16.595816,-75.714813,-174.53328,-0.0024399201,-0.18008955
494000000,-5.6461058,70.594215,-68.419327,125.83743,-68.068977,-72.706833,0.012077632,-0.24937405
495000000,-5.6162438,70.181717,-73.617439,-8.5421591,-66.61808,-177.84454,0.012206702,-0.1551756
496000000,-5.6015005,69.775017,-66.63578,16.02334,-67.694244,68.455925,0.004072024,-0.14183594
497000000,-5.5767064,69.452019,-76.620773,14.345166,-81.45459,74.344429,0.00088572752,-0.32299918
498000000,-5.5552597,69.187027,-70.587845,6.9290524,-81.553001,-55.010418,0.0023213509,-0.23268484
499000000,-5.5301623,68.766006,-65.577667,-167.38608,-85.457687,3.2619994,0.016304437,-0.21369894
