Freq_Hz_,S11_DB_,S11_DEG_,S12_DB_,S12_DEG_,S21_DB_,S21_DEG_,S22_DB_,S22_DEG_
300000000,-8.8218184,-94.65535,-71.364456,-151.0988,-76.3647,84.300133,-0.00037665718,-0.21906275
301000000,-8.8683167,-95.073669,-78.894028,98.600464,-66.164291,-96.822151,-0.011528591,-0.2025229
302000000,-8.9336157,-95.688538,-75.931999,95.407669,-75.891861,111.95865,-0.00090118404,-0.13895597
303000000,-8.9949703,-96.246513,-73.644661,162.88106,-86.181717,126.16557,-0.00026430379,-0.22261515
304000000,-9.0604563,-96.81041,-74.357216,-4.2485704,-66.947525,83.885666,0.0047242073,-0.15539637
305000000,-9.1305771,-97.240891,-67.093254,15.958819,-65.829292,176.9986,0.009648365,-0.23111643
306000000,-9.1645432,-97.747124,-62.0522,-98.70504,-65.203979,77.019188,-0.00048202349,-0.23840204
307000000,-9.2351856,-98.444809,-68.560875,114.70219,-72.100723,-64.367577,0.012010516,-0.14874052
308000000,-9.3166075,-99.079536,-77.297485,82.211166,-65.800217,-122.21677,0.0042768442,-0.23994233
309000000,-9.3929539,-99.470306,-65.948425,34.294106,-70.701698,-134.17668,0.00041674409,-0.28714994
310000000,-9.4232931,-100.1517,-74.796661,-7.051125,-64.959648,-60.054623,-0.0016023782,-0.23832265
311000000,-9.5087166,-100.82375,-74.864807,-59.979511,-76.75103,-59.406368,-0.010462499,-0.20688322
312000000,-9.557374,-101.35739,-69.346626,176.08237,-67.721001,-136.0081,-0.00042895167,-0.27581775
313000000,-9.624774,-101.94522,-66.44902,120.08422,-65.41169,-166.03381,0.00024435666,-0.16988449
314000000,-9.6897621,-102.67475,-71.550827,165.27306,-72.74971,-90.744614,-0.00031840909,-0.22886473
315000000,-9.7584019,-103.29263,-81.294937,86.996841,-62.019482,146.52055,-0.0063075526,-0.18676913
316000000,-9.826684,-103.98411,-66.257874,43.209133,-73.828903,57.329056,0.0045416472,-0.22314054
317000000,-9.8988657,-104.58569,-72.87088,-36.556698,-74.952988,72.292885,-0.012569501,-0.22311202
318000000,-9.978591,-105.18091,-69.399231,91.958763,-72.558769,-83.737183,-0.0092552872,-0.21632442
319000000,-10.044988,-105.85603,-67.891487,-51.095627,-73.776161,-115.23166,-0.010124924,-0.29155028
320000000,-10.113635,-106.49208,-75.772392,163.23865,-69.573547,168.44287,0.0083644977,-0.21109693
321000000,-10.173479,-107.18288,-72.23597,-150.3054,-69.014915,-37.821419,0.00011648529,-0.24820738
322000000,-10.246825,-107.91582,-70.305237,128.54056,-63.698601,66.014168,0.0024320821,-0.27123299
323000000,-10.339192,-108.5161,-63.367615,-175.16144,-70.638481,153.13437,0.0068181865,-0.28040949
324000000,-10.400841,-109.2077,-88.359413,-148.76921,-83.001564,93.647957,0.013400145,-0.19291149
325000000,-10.492826,-109.94641,-80.797165,-108.15472,-71.452675,-50.203072,-0.017504893,-0.1491251
326000000,-10.552401,-110.59824,-72.801735,-25.964064,-71.670677,-34.860271,-0.0010340087,-0.27617335
327000000,-10.602812,-111.37442,-76.480461,26.193617,-66.725822,-105.49757,0.001152808,-0.25116986
328000000,-10.685048,-112.0676,-63.074402,-58.180611,-77.363029,-70.461029,0.0056524039,-0.32738841
329000000,-10.77145,-112.80458,-70.284073,-38.52113,-66.812881,-124.81866,0.0066181389,-0.2252388
330000000,-10.852931,-113.6133,-70.33007,178.4789,-86.046738,119.8345,0.0020502023,-0.23683107
331000000,-10.928916,-114.30522,-74.634804,82.788498,-63.302174,37.202686,0.0077340496,-0.30627009
332000000,-11.019573,-115.22466,-76.666512,-75.052269,-73.152557,-101.04953,-0.0026520505,-0.19966511
333000000,-11.072088,-115.72223,-69.546165,74.493599,-67.147087,-179.78137,-0.0015479979,-0.32262352
334000000,-11.147095,-116.53176,-64.501251,-90.146294,-71.443405,-126.79939,0.010629222,-0.28634861
335000000,-11.237916,-117.25533,-65.712952,69.599098,-62.85207,34.437141,0.00090177351,-0.29622489
336000000,-11.311484,-118.19705,-67.238251,23.535847,-69.204811,139.79668,0.0085928831,-0.26650047
337000000,-11.36911,-118.90767,-62.129654,-50.278713,-78.829414,-110.93969,-0.005275398,-0.2803269
338000000,-11.478043,-119.86643,-67.22702,104.16264,-64.063576,-58.088779,0.0021397246,-0.20142087
339000000,-11.52876,-120.49692,-67.777466,164.57611,-72.213356,14.037557,-0.0069728028,-0.2202853
340000000,-11.609682,-121.37137,-71.52121,-169.4304,-68.272835,23.513859,0.0078565292,-0.27251974
341000000,-11.667442,-122.27343,-78.948112,-74.273697,-75.267136,61.256493,0.0068228384,-0.24987474
342000000,-11.730088,-123.32702,-67.406578,97.095016,-71.444809,53.953972,-0.0013511989,-0.25892413
343000000,-11.801718,-124.2644,-82.097839,-153.01289,-84.919579,-84.580925,-0.0019973028,-0.22784492
344000000,-11.898719,-125.24583,-67.96875,-172.82362,-69.784851,108.43729,0.01075575,-0.26916626
345000000,-11.977256,-126.16647,-72.180962,177.91216,-74.870239,-67.049377,0.0058132024,-0.2183103
346000000,-12.037727,-127.13904,-69.920631,144.17804,-74.417107,-28.535784,0.0084192697,-0.27513707
347000000,-12.131438,-127.9765,-66.627602,84.958405,-70.59819,-135.43494,0.0081846742,-0.20661354
348000000,-12.180466,-128.95132,-65.575401,-26.49032,-66.270782,-136.25011,-0.0045901951,-0.28400192
349000000,-12.284402,-130.08498,-66.589714,21.157793,-72.062599,-173.99257,0.0048674573,-0.2712841
350000000,-12.368228,-131.47324,-67.651306,-172.29089,-67.779984,-72.828262,-0.0040351669,-0.20717265
351000000,-12.44421,-132.36214,-73.267761,-70.219971,-75.318832,-75.921669,-0.013892416,-0.25181055
352000000,-12.583332,-133.54758,-68.006424,19.659634,-74.185165,-32.333179,0.0007180174,-0.21897879
353000000,-12.679097,-134.38004,-74.900383,-6.869463,-75.705475,83.714844,-0.0057064262,-0.26218599
354000000,-12.774598,-135.31786,-76.537125,135.71971,-66.416145,165.23462,0.01249993,-0.28604567
355000000,-12.847015,-136.33444,-76.651291,-179.15178,-77.298439,42.046528,-0.005249999,-0.2042338
356000000,-12.925236,-137.56248,-74.685791,-116.83567,-63.342247,59.471367,0.0082885381,-0.24157758
357000000,-13.006925,-138.52631,-67.980766,131.07945,-67.36953,171.94624,0.017571008,-0.26220939
358000000,-13.121814,-139.80051,-66.460907,-20.822321,-75.436592,53.940777,0.015617365,-0.25825557
359000000,-13.200407,-140.90474,-70.215523,122.02538,-67.1082,6.3229098,0.0050448328,-0.26855507
360000000,-13.298811,-142.15302,-69.572273,31.937326,-66.926559,-163.55859,0.0039639208,-0.27143347
361000000,-13.369007,-142.98883,-72.304924,7.0240054,-67.123985,-129.5132,-0.0057994798,-0.23878384
362000000,-13.451287,-144.32359,-70.86068,-70.571922,-71.848534,-127.30828,0.019005766,-0.22225642
363000000,-13.531879,-145.13812,-67.584251,-18.683435,-72.700478,59.599468,-0.0026709589,-0.26672161
364000000,-13.654679,-146.71216,-66.924698,-121.46545,-72.914307,-152.46889,0.0033028289,-0.18494785
365000000,-13.72567,-147.69308,-78.428642,-8.7005854,-64.259361,97.40239,0.0013753625,-0.22836767
366000000,-13.78892,-148.81911,-80.136414,-115.8867,-73.468002,32.179996,0.011061472,-0.26390585
367000000,-13.87235,-150.20216,-64.451843,-13.954242,-69.099625,95.95639,-0.0024300779,-0.22393632
368000000,-13.899307,-151.27859,-68.977287,-171.0484,-71.119446,-22.519047,0.0062707472,-0.24957664
369000000,-13.98772,-152.82043,-70.05056,161.36908,-67.696365,-28.731979,-0.0058904621,-0.27148017
370000000,-14.091382,-154.20157,-67.02858,35.852776,-69.33934,43.146164,0.0092304396,-0.25110528
371000000,-14.153201,-155.26239,-72.822868,88.980888,-65.990417,13.396575,0.0086740032,-0.2815569
372000000,-14.203222,-156.61018,-69.610352,177.11797,-75.478935,-110.87916,0.0042897742,-0.27261829
373000000,-14.30178,-158.12036,-71.115036,129.61055,-67.553139,-104.03171,-0.0032434284,-0.28431746
374000000,-14.385704,-159.3817,-73.39563,-63.531292,-68.295219,-173.27046,0.0040859892,-0.29699534
375000000,-14.449899,-160.3925,-66.911072,109.13348,-84.804443,-65.64978,0.0080441171,-0.24755701
376000000,-14.528788,-161.6611,-67.728607,179.30377,-71.101135,101.06469,-0.0024515754,-0.2053124
377000000,-14.584813,-163.10057,-75.602356,9.0251684,-70.274338,70.054474,0.0047966088,-0.27556649
378000000,-14.666154,-164.40051,-67.802635,76.989014,-73.852699,-50.652451,0.0024983126,-0.26203233
379000000,-14.699355,-165.75104,-71.810364,35.800606,-65.874374,86.120514,-0.0040222118,-0.23888445
380000000,-14.735452,-167.1255,-63.920456,-0.045157891,-72.889687,-33.984009,0.0065524881,-0.30176535
381000000,-14.776219,-168.47566,-68.843765,59.647682,-69.669601,61.721478,0.0074084541,-0.22223262
382000000,-14.833277,-170.03073,-69.623795,146.45628,-79.924606,-92.439423,0.0065891906,-0.19796664
383000000,-14.862989,-171.37585,-77.444405,-85.090759,-71.833488,-81.455666,0.0081340326,-0.20814501
384000000,-14.909027,-172.9604,-64.196907,-160.19289,-68.269958,179.23845,0.0025241836,-0.23194535
385000000,-14.987911,-174.44623,-71.195366,-110.83316,-66.787834,-142.97546,0.0061306455,-0.21807675
386000000,-14.98691,-175.85875,-71.465294,172.73422,-71.13237,84.816376,0.009559514,-0.28828573
387000000,-15.025615,-177.29343,-66.780403,125.81282,-67.700737,90.556534,-9.5779142e-05,-0.24854386
388000000,-15.055386,-178.68852,-65.689194,51.038303,-69.944664,77.048561,-0.0074900887,-0.22794463
389000000,-15.047553,179.80869,-70.091866,140.30447,-76.830711,80.68882,0.006791824,-0.25942367
390000000,-15.06418,178.1563,-80.670403,-136.69398,-70.805191,-84.31472,0.0056575746,-0.26237732
391000000,-15.091636,176.69136,-64.634811,-17.505062,-67.776512,-135.20724,0.012175725,-0.31643921
392000000,-15.110562,175.07294,-71.772598,4.7294497,-71.127747,-147.35374,0.0081986263,-0.3246704
393000000,-15.114861,173.59337,-67.81366,153.96213,-67.543617,-136.72,-0.0023580752,-0.24058259
394000000,-15.13054,171.96158,-77.023773,-59.328716,-69.565201,86.930489,0.00044883951,-0.17091861
395000000,-15.143194,170.50084,-66.259689,-124.30036,-70.912666,112.72469,0.0039075403,-0.21775997
396000000,-15.161618,168.89774,-80.415268,178.13055,-65.81633,-137.1266,-0.012585337,-0.21052656
397000000,-15.19521,167.46837,-71.22049,-22.214109,-66.09008,100.38872,0.0080952765,-0.24553183
398000000,-15.177188,166.08383,-67.287804,-127.00136,-67.549782,131.02699,-0.0094171632,-0.18979968
399000000,-15.175281,164.70441,-73.130737,158.21637,-66.727997,65.388817,0.0020527898,-0.20008278
400000000,-15.144627,163.46222,-71.157211,26.329491,-71.927086,105.61085,-0.00067438185,-0.29579026
401000000,-15.159062,161.69803,-69.705009,-152.0282,-71.792587,-71.691154,0.0043580453,-0.20590416
402000000,-15.104568,160.35161,-70.032204,124.32392,-70.858887,-119.5639,0.0008645053,-0.20602454
403000000,-15.08319,159.14453,-71.885246,87.640778,-64.04187,-3.0399587,-0.006058434,-0.17917523
404000000,-15.000793,157.63612,-62.476788,95.084274,-75.375046,51.995659,0.00016204314,-0.22656912
405000000,-14.955379,156.18776,-66.413712,114.54306,-69.442398,-176.901,0.0062676454,-0.14621092
406000000,-14.899867,154.80153,-67.676682,-78.28698,-61.631023,177.00961,0.0096230526,-0.19394717
407000000,-14.802253,153.06306,-70.711357,57.08831,-82.801125,-48.602108,-0.0055029588,-0.19173251
408000000,-14.768425,151.51186,-75.028191,82.593697,-70.112373,70.071159,0.006497175,-0.17259294
409000000,-14.728324,150.03537,-66.875053,-171.83066,-65.919807,156.54666,-0.0096797058,-0.16281904
410000000,-14.701366,148.40529,-65.453537,21.737949,-67.713097,-60.228607,0.0033245564,-0.22440594
411000000,-14.663148,147.05577,-69.574089,-172.55788,-72.219612,-14.288074,0.014111822,-0.21130909
412000000,-14.607165,145.67023,-74.592278,-84.422562,-77.86795,-56.097706,-0.0054013585,-0.20943072
413000000,-14.582429,144.27409,-70.327217,80.249153,-79.41378,89.185585,-0.0055610174,-0.18650873
414000000,-14.49171,142.80052,-110.48942,-167.04843,-83.444183,45.36132,0.007938697,-0.17532802
415000000,-14.408365,141.42863,-67.45472,37.714119,-64.106483,-21.428001,0.0058478429,-0.22949579
416000000,-14.393548,139.89368,-72.798981,-159.69533,-68.49456,96.806114,0.0012656394,-0.15934066
417000000,-14.312826,138.28351,-69.909973,-127.60914,-67.647293,-11.879876,0.0046373243,-0.22747467
418000000,-14.271246,137.2155,-72.957657,-43.384312,-77.914833,-133.24831,-0.0058370652,-0.15961456
419000000,-14.201835,135.96367,-66.997055,68.15995,-70.708015,78.978142,0.0070285625,-0.23697008
420000000,-14.162578,134.45456,-78.416039,-139.62753,-77.312355,-124.39024,0.0099252379,-0.2203313
421000000,-14.082709,133.11354,-64.168053,11.967895,-64.630981,93.813057,-0.0049322648,-0.27302378
422000000,-14.017572,131.82948,-77.167755,-61.478806,-78.613945,30.661011,-0.00042377398,-0.11595716
423000000,-13.957638,130.69089,-74.47657,9.0047045,-76.347778,-64.999352,0.0077552381,-0.22040406
424000000,-13.926165,129.74637,-74.905762,-19.705145,-72.634094,-107.89281,0.01201258,-0.1901262
425000000,-13.845259,128.60689,-70.435234,171.94827,-70.194557,-114.00336,-0.0032817684,-0.16013472
426000000,-13.758467,127.32439,-68.356544,-75.786415,-65.621506,-138.32193,-0.0073202462,-0.18713611
427000000,-13.715676,126.27935,-83.515869,140.70207,-66.356255,-55.315453,0.0034445736,-0.20799796
428000000,-13.592171,125.04493,-97.459526,62.491039,-71.878502,-55.982098,0.0088383071,-0.1655304
429000000,-13.491312,124.11217,-66.922951,56.681961,-66.7341,123.75182,0.0014322933,-0.21018708
430000000,-13.404918,122.92121,-76.691132,34.59391,-66.563683,158.66692,0.0090558184,-0.13250588
431000000,-13.314339,121.56543,-66.010345,151.21298,-71.115181,66.657227,-0.0074294112,-0.22554184
432000000,-13.241392,120.49657,-65.975357,112.69272,-74.606552,64.661575,0.004426315,-0.12803334
433000000,-13.162104,119.46635,-69.950218,-61.786083,-65.407135,-49.419655,0.0016403429,-0.17785896
434000000,-13.067559,118.18153,-64.349472,122.69808,-77.078781,145.30542,0.012045623,-0.19300382
435000000,-12.994992,117.27431,-65.213654,41.192959,-71.694481,15.400077,-0.0029610696,-0.16960961
436000000,-12.939063,116.18716,-68.130165,106.15232,-73.330078,-176.48418,0.0074658226,-0.19253664
437000000,-12.877373,115.21357,-83.310371,127.90596,-68.08345,163.86157,-0.00088254234,-0.2154184
438000000,-12.781534,114.18139,-63.114334,-7.7204652,-66.13607,-165.78192,0.0037875359,-0.17130183
439000000,-12.708715,113.08738,-66.547104,-19.597126,-73.60878,-39.200886,0.0046114656,-0.1747603
440000000,-12.641334,112.339,-84.588242,-157.45354,-78.610863,120.40652,0.0038015023,-0.19803871
441000000,-12.542491,111.5412,-64.941742,148.43106,-73.796745,63.754482,-0.000348698,-0.11306474
442000000,-12.466968,110.25243,-75.123367,-20.426449,-67.79805,70.586372,0.002422251,-0.22253437
443000000,-12.389547,109.48615,-73.210541,50.344177,-71.850029,-34.766705,0.0021319627,-0.23296049
444000000,-12.306299,108.58833,-69.498825,-72.45005,-68.797882,-127.59162,-0.0018258622,-0.21516937
445000000,-12.23436,107.67998,-69.899315,115.15279,-73.773659,169.47705,0.0039282306,-0.18267477
446000000,-12.159868,107.01363,-66.672623,-12.234694,-72.937485,87.249222,0.003494235,-0.18236127
447000000,-12.074702,106.1422,-72.610382,-100.02253,-69.386002,-51.244415,0.007596062,-0.086631782
448000000,-11.994651,105.26222,-67.782715,-129.23216,-67.112335,179.27013,0.011238078,-0.12924971
449000000,-11.90834,104.37418,-68.871643,-136.32364,-61.17366,15.128606,-0.0027287204,-0.16668445
450000000,-11.806946,103.51339,-75.345528,-142.58054,-76.366592,-58.682499,-0.0076047038,-0.15042244
451000000,-11.74557,102.70914,-69.206528,-111.88947,-67.989922,50.133877,0.0071334885,-0.17718008
452000000,-11.653175,101.79743,-66.881012,124.34719,-71.302292,42.622871,0.0078234542,-0.18091583
453000000,-11.569428,100.99768,-64.810272,-140.72614,-78.494362,138.28113,0.012742553,-0.085306801
454000000,-11.521763,100.33412,-80.379517,132.8264,-69.403603,-38.975357,-0.00095995778,-0.11557794
455000000,-11.4298,99.350182,-69.551208,-115.30268,-72.754677,-59.097893,0.015121079,-0.1107652
456000000,-11.359613,98.426842,-73.347168,161.9899,-73.447571,-46.659256,0.0055417549,-0.079485141
457000000,-11.279759,97.562225,-66.593689,-128.99139,-75.056091,-136.94357,0.0044195917,-0.18459468
458000000,-11.260592,97.050484,-77.235893,89.100204,-66.483025,-116.37332,-0.010730036,-0.2049115
459000000,-11.159545,96.180237,-67.567886,156.8423,-64.558243,99.179344,0.015423913,-0.1389064
460000000,-11.117579,95.532501,-68.394936,-16.013409,-68.704323,-168.64081,-0.0074058147,-0.17750938
461000000,-11.012436,94.897682,-77.128052,4.4174323,-68.303177,178.31909,-0.0023673992,-0.12501191
462000000,-10.964157,94.158287,-81.505737,-29.21265,-79.364517,89.213928,0.0080802906,-0.17529231
463000000,-10.887542,93.508667,-73.775185,47.985092,-69.284058,92.237427,0.0042985668,-0.25979516
464000000,-10.81165,93.003281,-66.475761,122.62214,-76.995956,146.10715,0.014051445,-0.19218443
465000000,-10.746769,92.262383,-67.813179,22.229145,-68.121468,-54.523861,-0.0023961484,-0.17866926
466000000,-10.673615,91.55471,-73.781822,-54.943901,-76.716103,168.00304,-0.00082273397,-0.26632673
467000000,-10.597728,90.799515,-74.038284,-158.55881,-65.117752,-94.113449,0.0040347832,-0.13326691
468000000,-10.542186,90.053017,-71.267845,83.127075,-88.437828,-16.26753,0.0092195906,-0.22837986
469000000,-10.459466,89.368843,-69.19519,61.412308,-68.966957,83.561234,0.0055050435,-0.090005845
470000000,-10.38071,88.79187,-69.87767,-95.795792,-65.353905,-34.482773,0.0063596657,-0.19505577
471000000,-10.321373,88.026535,-66.917,-41.000378,-68.862488,2.3958113,0.0017640293,-0.20579322
472000000,-10.256961,87.605408,-63.860203,110.50718,-78.358315,-161.94653,0.0044490714,-0.19927666
473000000,-10.198355,86.908051,-73.092293,-27.650379,-71.198288,-109.73179,0.0044542435,-0.1603719
474000000,-10.145657,86.340248,-67.100151,106.76521,-69.676941,53.658604,0.0021671501,-0.20226015
475000000,-10.068731,85.764374,-76.703957,5.4928293,-65.054695,-117.80023,0.00069886493,-0.12767425
476000000,-10.002467,85.114517,-70.982056,-71.776131,-60.955563,58.368797,0.0069897962,-0.21934709
477000000,-9.9554539,84.380386,-79.371849,93.27269,-65.340439,148.78394,0.01125202,-0.17181976
478000000,-9.8792772,83.94619,-71.243736,130.7296,-73.596611,61.55809,0.0178912,-0.20106958
479000000,-9.8173885,83.396194,-63.481022,-12.288956,-68.581886,15.063014,-0.011226487,-0.1884992
480000000,-9.7480221,82.796837,-78.224571,12.984964,-61.157436,-139.54012,0.0054636784,-0.21201105
481000000,-9.6802654,82.113625,-75.25499,3.711489,-76.690216,-14.426708,-0.0015808849,-0.10173033
482000000,-9.6318989,81.374229,-67.439774,-35.08094,-74.437317,-139.50746,0.0047578225,-0.21779324
483000000,-9.5670986,81.022682,-67.610176,65.153694,-70.507179,-118.4806,-0.0050131213,-0.19540189
484000000,-9.4881439,80.417931,-68.03109,179.34912,-78.68618,-68.00264,0.0080270637,-0.13417296
485000000,-9.4655695,79.718277,-64.648178,7.8453159,-65.70237,155.56505,0.0071660508,-0.21553536
486000000,-9.3798199,79.251305,-71.975075,-14.086415,-74.054604,0.71307999,-0.0048045036,-0.18937901
487000000,-9.2999649,78.603813,-66.992432,141.99796,-67.903809,101.13532,-0.0027851877,-0.18861736
488000000,-9.2641134,77.796761,-71.830696,106.1936,-76.24305,-63.882671,-0.0033918684,-0.15756845
489000000,-9.2445421,77.289963,-82.870384,88.833252,-68.66967,-40.038326,-0.0082094641,-0.15419309
490000000,-9.208065,76.7808,-77.257813,171.86272,-69.257317,159.12247,0.016643291,-0.15834813
491000000,-9.1521254,76.396927,-68.726532,50.735764,-66.181839,73.557327,0.010415921,-0.1488938
492000000,-9.0978451,75.948105,-66.875359,142.99974,-80.2034,144.71548,-0.0020581633,-0.22639817
493000000,-9.0563078,75.457672,-71.192284,-159.66602,-64.504227,153.1729,0.0051653194,-0.17061421
494000000,-9.0177259,74.878098,-75.47506,64.267258,-67.043869,69.338196,0.0097692404,-0.240907
495000000,-8.9616108,74.428551,-66.673233,138.67203,-66.324287,92.229225,0.010010982,-0.14281692
496000000,-8.9189653,73.884949,-68.807442,114.84543,-73.622635,-87.978218,0.0042933947,-0.16687146
497000000,-8.8835974,73.512558,-64.476387,-99.998192,-80.133377,-11.506386,0.0017836946,-0.30629474
498000000,-8.8287783,73.258629,-65.525566,-91.438408,-67.470833,-167.48654,0.0011600541,-0.21737812
