Freq_Hz_,S11_DB_,S11_DEG_,S12_DB_,S12_DEG_,S21_DB_,S21_DEG_,S22_DB_,S22_DEG_
300000000,-4.253438,-70.61969,-62.909504,98.692726,-74.926414,63.768879,-0.002265872,-0.2439619
301000000,-4.2792263,-71.00724,-67.686882,86.735458,-77.616432,-157.56018,-0.0038338504,-0.24697497
302000000,-4.3018851,-71.39534,-64.55574,-66.127815,-73.383301,-151.38876,-0.0017398855,-0.15760593
303000000,-4.3402715,-71.775085,-72.003494,-142.97162,-66.494949,-49.386097,0.0018551099,-0.27522621
304000000,-4.3596649,-72.103493,-69.795341,-92.484367,-70.237534,-108.27731,0.0029753493,-0.19124673
305000000,-4.3868809,-72.533401,-73.533691,-57.843616,-68.103592,-115.99985,0.010350844,-0.23817225
306000000,-4.4076719,-72.956665,-77.418533,-67.882309,-70.420341,10.241521,0.0022049246,-0.22090623
307000000,-4.4350724,-73.341736,-79.301628,-40.542896,-65.116463,165.30725,7.1444687e-05,-0.13370232
308000000,-4.463778,-73.781792,-80.306236,-128.38885,-62.850533,23.451492,0.0027425289,-0.24023309
309000000,-4.4943748,-74.104172,-72.739685,-133.66599,-68.808128,158.78546,-0.0024722959,-0.1993296
310000000,-4.5183077,-74.59996,-67.818733,-122.1487,-75.166702,-157.25288,0.0054321368,-0.2484028
311000000,-4.5634346,-74.998734,-67.898163,104.82634,-75.163963,-12.359276,-0.0087829242,-0.23926839
312000000,-4.5700436,-75.316002,-63.975014,-72.029633,-75.636772,49.838745,-0.010098717,-0.23196384
313000000,-4.6162953,-75.736229,-65.472939,155.98666,-70.204651,168.80629,0.0050443155,-0.20756373
314000000,-4.6354203,-76.204437,-69.282021,-142.45416,-75.455612,-166.76091,-0.0089668306,-0.21411563
315000000,-4.6473632,-76.627525,-68.82058,74.869087,-71.643921,-16.339024,-0.0042440067,-0.22615276
316000000,-4.6882358,-77.060722,-73.231224,-92.78923,-69.337288,55.777237,0.0030772688,-0.23152177
317000000,-4.7179174,-77.509087,-73.561295,162.76247,-78.291222,98.104858,-0.00737418,-0.19944726
318000000,-4.7644706,-77.99234,-78.081978,9.8080482,-72.604332,106.9071,-0.0089377789,-0.14825933
319000000,-4.800818,-78.444359,-70.650055,74.375587,-72.823616,-31.209225,-0.013540291,-0.25561544
320000000,-4.8370676,-78.770599,-70.424622,-10.86775,-70.298424,102.25714,0.0020108742,-0.23839183
321000000,-4.8524761,-79.243446,-69.677841,134.6221,-65.142601,-52.13068,0.0040528863,-0.23234959
322000000,-4.9040804,-79.769814,-68.596756,-90.175377,-63.506393,-88.838203,0.009554348,-0.21566799
323000000,-4.9404683,-80.134079,-62.875359,-23.861586,-76.19352,81.212929,0.00059274823,-0.27030948
324000000,-4.9780655,-80.566406,-75.75116,29.473982,-67.093498,106.96433,0.014788298,-0.24433738
325000000,-5.0230479,-80.953491,-71.691681,-71.324333,-71.80793,32.253757,-0.011670046,-0.21653333
326000000,-5.0503082,-81.468201,-79.14296,-121.63547,-75.041641,10.221541,0.0047045555,-0.24830584
327000000,-5.0767236,-81.854507,-78.077309,-134.47487,-69.172691,81.420784,0.004818846,-0.23591767
328000000,-5.1099105,-82.325447,-66.338791,52.400009,-69.043709,-94.152771,0.001025481,-0.27213657
329000000,-5.1549268,-82.78833,-69.056023,127.59357,-70.006516,-26.77187,0.0036975304,-0.17699586
330000000,-5.1908641,-83.367996,-72.893387,-44.624756,-69.646767,-52.907242,0.00023193208,-0.23069093
331000000,-5.2317166,-83.734894,-68.681038,-158.49432,-87.435501,155.30791,0.0069210497,-0.24211808
332000000,-5.2788301,-84.289566,-68.548706,140.48361,-71.841278,12.229218,0.0061466722,-0.2735025
333000000,-5.3070579,-84.699196,-72.98037,-146.13411,-74.643219,42.791775,-0.00042014959,-0.29171523
334000000,-5.3429074,-85.162506,-74.741112,67.073097,-73.456512,27.483677,0.01387547,-0.2858316
335000000,-5.3937173,-85.685699,-66.570053,46.337601,-73.72644,-90.294472,0.0051725591,-0.28546625
336000000,-5.4311094,-86.089928,-68.092651,-42.049171,-64.618683,8.1183043,0.014183035,-0.2355731
337000000,-5.463738,-86.614845,-77.017975,-117.07962,-80.930351,-89.433334,0.0083169583,-0.31934685
338000000,-5.5174088,-87.144882,-65.788033,-42.224232,-69.195976,105.88879,-0.0001501412,-0.17886896
339000000,-5.5468392,-87.646713,-68.295364,-95.238113,-64.241333,-50.95208,-0.0012903484,-0.17558442
340000000,-5.5959692,-88.209961,-73.102051,-30.92112,-81.228203,-89.688789,0.0044123507,-0.21734795
341000000,-5.6440611,-88.766235,-79.236031,108.34615,-65.082344,76.089897,0.018330978,-0.24131885
342000000,-5.6826487,-89.41861,-74.538162,-51.601055,-62.780003,-87.575638,0.0033312817,-0.28085321
343000000,-5.7481332,-89.866112,-64.600311,-50.418961,-66.278183,154.38826,0.00019051654,-0.19010425
344000000,-5.8063068,-90.358116,-83.54718,97.773705,-71.193085,53.398888,0.0020553772,-0.24651137
345000000,-5.8471441,-90.916214,-65.959602,-122.60329,-73.840584,-162.49861,-5.4619737e-05,-0.27597275
346000000,-5.8972783,-91.46524,-71.077995,84.227005,-70.990273,45.799644,0.0080916593,-0.30034241
347000000,-5.9726853,-91.977577,-75.426338,164.38951,-67.101646,19.741774,0.0040616794,-0.25982442
348000000,-5.9974604,-92.508873,-65.902542,-44.09396,-64.009666,161.28291,0.0017774845,-0.30367267
349000000,-6.0778275,-93.118156,-66.258362,-18.818615,-72.452682,30.524488,0.0029789708,-0.33367026
350000000,-6.1566663,-93.934502,-65.492531,35.456696,-65.204521,24.919975,-0.0041053835,-0.17801766
351000000,-6.2076464,-94.281456,-78.178841,-82.633018,-69.0149,54.257374,-0.0081199901,-0.29178637
352000000,-6.2974091,-94.698441,-81.804726,178.71841,-73.315971,123.00311,-0.0047303885,-0.20502116
353000000,-6.3582821,-95.126427,-69.084908,-20.424879,-69.246025,35.244816,-0.0026258898,-0.24180959
354000000,-6.4163151,-95.544434,-67.656731,177.29448,-69.758751,-67.458519,0.016272459,-0.33346844
355000000,-6.4859991,-96.145615,-69.594559,8.7999134,-67.249107,161.99498,-0.0028110903,-0.22141814
356000000,-6.5572238,-96.722511,-69.660316,95.721725,-71.414696,65.893684,0.0046202578,-0.27593562
357000000,-6.6462212,-97.155342,-74.613457,-165.5405,-74.744377,-5.92626,0.0068083652,-0.22161071
358000000,-6.7233481,-97.530334,-78.305473,-167.29555,-68.87645,-94.928299,0.01499416,-0.26827681
359000000,-6.7819462,-97.857994,-63.906937,-39.337765,-65.683319,-58.586468,0.0063358853,-0.3584204
360000000,-6.8396077,-98.240456,-66.781868,-88.634438,-64.682381,177.51805,0.0025040044,-0.24783958
361000000,-6.8797545,-98.575844,-71.460258,-45.916824,-71.913399,23.238903,-0.0014985383,-0.25208512
362000000,-6.9261642,-99.023369,-73.282478,71.807663,-65.104614,163.87463,0.0047076582,-0.19369857
363000000,-6.9869347,-99.445107,-74.68586,160.25485,-77.946815,99.356995,0.0016418954,-0.25309345
364000000,-7.0612655,-100.00745,-82.054924,156.7724,-82.185089,-127.35471,0.011257184,-0.12223344
365000000,-7.101779,-100.24451,-66.485718,-178.23581,-66.402527,-85.077644,-0.0046041883,-0.23354271
366000000,-7.1225142,-100.75434,-71.362953,66.163132,-71.893311,93.90387,0.0059031644,-0.26557282
367000000,-7.2041359,-101.311,-74.199081,-10.815855,-83.293694,154.34055,0.0046181888,-0.21027212
368000000,-7.2255287,-101.94946,-69.218971,99.435905,-94.693695,-57.617798,0.016751595,-0.23030883
369000000,-7.2770452,-102.60483,-72.727661,-17.686106,-66.770508,-54.262665,-0.0040582269,-0.26422727
370000000,-7.342371,-103.04762,-68.876991,81.645561,-72.728249,50.586094,0.0086889872,-0.24223511
371000000,-7.3977337,-103.64153,-72.800278,-172.76869,-71.334023,16.153511,0.007239962,-0.28477344
372000000,-7.452292,-104.23272,-70.165855,100.7663,-70.172867,33.626167,0.0057883849,-0.25342989
373000000,-7.5350742,-104.71671,-65.718536,-14.12902,-66.773918,-37.764137,0.0019762029,-0.28127518
374000000,-7.5760865,-105.29521,-70.31086,27.95191,-74.104378,-98.810753,0.0013272297,-0.28942126
375000000,-7.6370625,-105.76685,-62.256462,-51.174099,-67.112976,172.49806,0.019811869,-0.20896932
376000000,-7.6897016,-106.3266,-62.270737,-79.646454,-69.040504,33.34856,-0.0043289964,-0.29791358
377000000,-7.7530327,-106.9581,-73.348137,144.1501,-71.55851,-136.78593,0.0051792813,-0.28557181
378000000,-7.8025694,-107.47066,-75.120872,-176.72339,-75.731552,108.3044,-0.0045129741,-0.25871769
379000000,-7.8744717,-108.02493,-72.839348,119.4631,-64.791451,-148.81613,-0.0072979466,-0.2386362
380000000,-7.9148664,-108.75718,-73.9953,-176.60735,-79.157745,-50.938538,0.010024412,-0.30358404
381000000,-7.9802771,-109.35051,-64.484879,72.586235,-71.542145,-123.17097,0.0094019538,-0.24235509
382000000,-8.0497532,-109.9304,-65.045097,135.80429,-72.147453,164.26663,0.0086667696,-0.16186437
383000000,-8.09097,-110.73095,-70.081543,-71.915764,-64.662773,-169.90698,0.0046487018,-0.15024111
384000000,-8.1774607,-111.10331,-72.121078,84.725624,-63.164955,-10.13119,0.0051348102,-0.2277057
385000000,-8.2482519,-111.86689,-65.559242,128.12335,-78.082146,72.370041,0.0057335794,-0.20559715
386000000,-8.2909536,-112.52145,-64.779572,-82.275803,-67.944122,86.501823,0.005997777,-0.23775841
387000000,-8.360878,-113.10699,-66.629143,-176.44165,-65.902458,35.111839,0.0034859583,-0.23976876
388000000,-8.4299841,-113.81981,-75.504723,136.07324,-79.523972,-157.77448,0.00072681718,-0.23920123
389000000,-8.4934998,-114.55224,-73.395203,-21.86545,-71.420334,-35.817856,0.011326894,-0.17520165
390000000,-8.5473661,-115.30762,-93.977875,98.395927,-68.752556,-12.710458,-0.0020744791,-0.27014488
391000000,-8.6365166,-115.95163,-70.661217,134.29799,-69.781769,6.9352455,0.012266587,-0.28840137
392000000,-8.6981792,-116.58824,-66.053864,-77.024261,-66.725563,157.44713,0.0068983063,-0.32258794
393000000,-8.7735806,-117.20352,-69.42379,-68.992241,-70.082199,151.38219,0.003400085,-0.24015175
394000000,-8.8479862,-117.91138,-73.113327,-114.16458,-71.979965,11.76328,-0.0021216143,-0.20973167
395000000,-8.9128265,-118.66142,-67.186882,14.7451,-65.86013,-169.47067,0.013227756,-0.21668588
396000000,-8.9771929,-119.41573,-74.801224,87.2911,-71.657059,-178.31363,0.0029613804,-0.18426295
397000000,-9.0459576,-120.13769,-64.963684,-140.16699,-68.558769,116.30423,0.0036240763,-0.23755625
398000000,-9.1034555,-120.90361,-70.233963,-149.84634,-65.813583,-174.69893,-0.010712649,-0.20135905
399000000,-9.1749964,-121.71143,-70.067787,-90.96357,-74.381157,-54.021713,-1.6308191e-05,-0.2605176
400000000,-9.2399664,-122.40514,-72.304558,-107.0598,-84.442963,95.941711,0.0068910695,-0.24380891
401000000,-9.325429,-123.21989,-68.416786,-42.329304,-64.333946,-154.73259,0.0056446483,-0.18870848
402000000,-9.3932333,-124.27206,-68.108047,82.792648,-69.866386,50.704887,0.0070849024,-0.23678257
403000000,-9.4540491,-124.86802,-65.564774,-143.34682,-77.823364,98.831184,0.0052599483,-0.14682005
404000000,-9.5361252,-125.81615,-79.763458,58.70327,-66.210312,-83.728004,0.001748504,-0.16252089
405000000,-9.6325045,-126.55261,-70.623634,-159.71954,-73.807419,137.46918,0.00063881872,-0.16966332
406000000,-9.7208509,-127.45734,-67.166458,52.154049,-74.465187,103.61997,0.0015885902,-0.1882486
407000000,-9.8159275,-128.33391,-65.525574,117.90105,-73.862122,-28.275843,0.010612695,-0.18920262
408000000,-9.9122486,-129.1084,-70.408264,-72.17009,-80.854843,-39.696507,0.0093513262,-0.1312238
409000000,-9.9780283,-130.13113,-70.438057,76.961426,-70.422554,25.463627,-0.010961775,-0.15311611
410000000,-10.089979,-130.90121,-63.090401,-12.087197,-63.122696,177.04103,-0.0013144294,-0.21251087
411000000,-10.156588,-131.64148,-74.207993,-50.998966,-63.973824,-10.391469,0.0044537261,-0.2206886
412000000,-10.244971,-132.55109,-81.133476,-83.858986,-74.367996,69.186134,-0.0059044594,-0.23514116
413000000,-10.331481,-133.44902,-72.805351,74.298073,-68.861084,-27.231583,-0.00016179032,-0.16966701
414000000,-10.424243,-134.28949,-70.107788,-13.311839,-95.824661,-174.75041,0.0037539133,-0.16295104
415000000,-10.496303,-135.24556,-74.427925,91.417938,-84.203491,-79.911133,0.0025567808,-0.24482
416000000,-10.610134,-135.9841,-70.927948,59.093178,-88.452576,3.880589,0.011556674,-0.17513904
417000000,-10.678478,-137.16873,-77.305664,98.788727,-67.04348,-105.42493,0.0099567464,-0.20809279
418000000,-10.784616,-137.71832,-69.977364,-177.33221,-66.884552,-93.860046,-0.0045712786,-0.20639955
419000000,-10.862266,-138.87897,-77.336678,72.86525,-78.115921,39.197823,0.007441015,-0.25678545
420000000,-10.93252,-139.74091,-66.507652,-21.335417,-74.777145,-68.407928,0.0096535301,-0.22122684
421000000,-11.002213,-140.64876,-74.327713,-0.30976102,-66.491089,56.338123,-0.0057237926,-0.26163036
422000000,-11.101166,-141.67909,-79.252457,51.334885,-71.749535,96.222801,-0.00059748924,-0.10493819
423000000,-11.147005,-142.66016,-75.438286,102.59032,-75.156723,54.095749,0.0026043828,-0.16162361
424000000,-11.210095,-143.58664,-68.08358,-171.48286,-71.196899,131.68129,0.0076250033,-0.18191461
425000000,-11.308173,-144.76898,-72.753082,10.570411,-68.757942,109.69952,0.0066476036,-0.14653042
426000000,-11.370338,-145.77971,-64.879379,76.810028,-70.071213,-114.31404,-0.0058108852,-0.17959046
427000000,-11.455084,-146.79822,-74.519547,16.493013,-68.650398,128.27293,-0.0030260882,-0.22916327
428000000,-11.555093,-148.10591,-68.751877,3.4114277,-70.608223,66.280052,0.015310417,-0.08211454
429000000,-11.628826,-149.19136,-69.858597,-31.694151,-72.217743,-10.725367,0.0052015167,-0.21454996
430000000,-11.7347,-150.38275,-83.023293,-138.60316,-70.061874,53.46368,0.010383898,-0.17760158
431000000,-11.822258,-151.78935,-73.922394,27.973869,-69.042496,7.5854588,-0.0075092772,-0.21088211
432000000,-11.918617,-152.6512,-72.613007,105.51705,-76.055466,-103.17157,0.0053700879,-0.16552652
433000000,-11.962433,-153.95323,-68.080978,-75.816483,-76.106392,-104.24998,0.0082849218,-0.13142756
434000000,-12.083209,-155.08861,-72.474297,105.03025,-69.311043,-142.41182,-0.00099413493,-0.14286906
435000000,-12.166156,-156.34128,-68.681145,-11.697282,-81.382072,-140.48575,0.0011854155,-0.19543792
436000000,-12.243242,-157.30872,-71.61705,29.286089,-65.650482,-104.10046,0.010224819,-0.17592955
437000000,-12.32612,-158.73289,-68.640533,110.36298,-83.867172,14.559175,-0.0090877106,-0.26518714
438000000,-12.407787,-160.00183,-73.433121,119.34296,-65.649055,-7.6062207,0.013419242,-0.12425063
439000000,-12.48409,-161.2877,-67.244415,143.49825,-79.694565,156.02684,0.0046187062,-0.20886925
440000000,-12.55689,-162.57889,-69.968452,15.377253,-73.182922,110.70293,-0.0040328349,-0.21878597
441000000,-12.605744,-163.90433,-66.108521,123.92167,-63.767956,-92.474907,0.0090485848,-0.15985127
442000000,-12.721534,-165.17648,-81.412727,-145.20128,-75.320488,83.036308,0.015818546,-0.20289873
443000000,-12.790133,-166.60062,-64.427826,37.953041,-72.602165,-114.33288,0.005455405,-0.19113581
444000000,-12.847401,-167.96196,-74.697128,161.54265,-66.668625,102.32282,-0.00023505095,-0.18426162
445000000,-12.96374,-169.21797,-59.176029,-84.636185,-66.736931,120.30884,0.00059740705,-0.19148009
446000000,-12.981066,-170.59064,-72.397354,146.40535,-72.630905,62.237518,0.011966115,-0.1517064
447000000,-13.071503,-172.00479,-70.274109,97.44046,-73.109497,-118.35664,0.0029065392,-0.10944284
448000000,-13.131217,-173.39615,-65.497566,-90.563858,-78.990509,111.77796,0.014649502,-0.13137412
449000000,-13.227397,-174.68547,-73.003227,36.640728,-66.902977,-128.88095,0.0035997636,-0.12963971
450000000,-13.243619,-176.03722,-67.650124,-60.710861,-68.845352,-68.095222,-0.0043854844,-0.13236684
451000000,-13.317842,-177.39647,-74.071518,-143.09006,-78.285347,51.907131,0.0086316355,-0.17092143
452000000,-13.358303,-179.05684,-67.218513,-18.053122,-85.140526,168.64684,0.0057852827,-0.15543711
453000000,-13.439892,179.47914,-77.171913,-119.38549,-64.818214,146.71477,0.007753171,-0.063474335
454000000,-13.456518,178.25664,-67.354118,-44.383389,-66.29583,-48.147522,-0.00050506461,-0.10137279
455000000,-13.512055,176.68802,-70.659904,-171.59071,-67.227592,-139.84966,0.016193029,-0.19075139
456000000,-13.560381,175.19646,-79.359612,-33.682194,-74.73597,-10.877447,0.011074382,-0.08406803
457000000,-13.616987,173.71754,-67.919807,18.436052,-77.383781,100.10094,0.0040115071,-0.10885203
458000000,-13.617661,172.35188,-69.633865,-114.31333,-67.234436,104.50225,-0.0082229506,-0.18861349
459000000,-13.629429,170.81105,-65.756432,-40.968578,-70.484123,-23.269512,0.0068171527,-0.18612029
460000000,-13.655053,169.51256,-69.490997,118.82754,-69.615074,-11.454414,-0.0035835784,-0.12301132
461000000,-13.664957,167.53909,-70.66507,66.504181,-65.959602,-13.134659,0.0014291879,-0.085116439
462000000,-13.691154,166.43425,-67.887421,-67.892265,-70.102646,-91.572182,0.006798544,-0.15486488
463000000,-13.692384,164.60867,-65.554359,78.572189,-75.061729,-138.76997,-0.0037053446,-0.17554356
464000000,-13.721366,163.08963,-70.80484,78.017998,-66.192169,109.39105,0.011558223,-0.19358508
465000000,-13.721439,161.52382,-66.978874,140.3593,-78.397758,-42.069057,-0.0011269624,-0.17762704
466000000,-13.74215,159.91409,-69.120987,-58.206894,-64.676895,43.211845,-4.03823e-05,-0.21317682
467000000,-13.738722,158.50629,-65.670143,-15.034768,-67.00383,-140.60477,0.0017490215,-0.085942365
468000000,-13.754692,156.92288,-65.437325,82.069984,-69.737709,-2.4483244,0.012286206,-0.14457674
469000000,-13.754944,155.1684,-67.820549,94.228813,-70.8647,151.52039,0.00066314789,-0.18902335
470000000,-13.707993,153.71663,-71.481705,113.3633,-67.005363,-2.3992064,0.0092319893,-0.15360829
471000000,-13.748257,152.13022,-69.136543,-45.251709,-65.255066,167.03247,0.0039256443,-0.15878326
472000000,-13.720266,150.53047,-67.934471,37.423763,-70.947029,-48.591133,-0.0013910758,-0.17879888
473000000,-13.720276,149.11786,-67.208862,49.050522,-69.114555,48.219566,0.0080503188,-0.16624656
474000000,-13.703809,147.60498,-72.140182,-0.57027531,-64.973015,110.43859,0.0042990842,-0.20164026
475000000,-13.680296,146.13803,-69.457741,172.36749,-72.792519,8.6382389,-0.0017284912,-0.09407901
476000000,-13.636593,144.58324,-71.356743,-179.07155,-72.637672,18.00325,0.0051265364,-0.22497286
477000000,-13.621946,143.10315,-80.619576,-119.91598,-66.237274,142.05333,0.016041897,-0.15022227
478000000,-13.581906,141.83292,-83.682648,35.378624,-68.817947,11.828141,0.011590236,-0.21973145
479000000,-13.545532,140.29619,-64.272911,-179.09435,-65.789436,122.04387,-0.009639753,-0.1914546
480000000,-13.528956,138.65102,-79.58242,-0.33628836,-84.372017,18.511669,0.0016636314,-0.23568927
481000000,-13.48313,137.38052,-78.928322,174.49606,-71.202278,-49.385487,-0.0010961503,-0.082059734
482000000,-13.44275,135.91678,-73.100906,-165.63318,-82.936607,-141.15242,0.00040742604,-0.24782598
483000000,-13.374426,134.25803,-67.756691,-91.658302,-64.148697,154.49498,-0.0026813196,-0.21278559
484000000,-13.324737,132.8945,-78.885185,153.31223,-63.216637,73.23806,0.0037658107,-0.17622469
485000000,-13.320724,131.58467,-69.598862,-161.88757,-69.504158,77.50914,0.0045716437,-0.17384292
486000000,-13.248701,130.02031,-77.767891,-158.3555,-75.837006,-156.91075,-0.0048905411,-0.18190354
487000000,-13.207204,128.73732,-62.582764,-139.61815,-73.129509,151.1745,0.0011139892,-0.20154454
488000000,-13.188872,127.37602,-81.603676,72.475128,-63.803333,-177.94508,-0.010082372,-0.15044911
489000000,-13.143912,126.00657,-68.939651,113.03125,-67.524895,90.050148,-0.0023725792,-0.24882849
490000000,-13.096727,124.92255,-68.191147,65.668961,-77.82222,69.502556,0.0088434732,-0.16478316
491000000,-13.020266,123.6683,-76.825394,13.4904,-74.444016,63.221264,0.0074746087,-0.1365393
492000000,-12.93897,122.45726,-67.936867,-171.66301,-65.673332,53.266117,-0.0075969244,-0.22096422
493000000,-12.888594,121.23087,-70.530411,66.718628,-68.249275,-62.617592,0.0046600797,-0.1876564
494000000,-12.866916,119.95807,-76.640228,-3.1951942,-73.691795,55.600746,0.0060939388,-0.22964628
495000000,-12.796474,118.78927,-75.137192,173.83957,-62.800495,151.87996,0.0083252266,-0.14515957
496000000,-12.733193,117.66943,-66.117348,6.2372713,-87.636223,128.24419,0.00011234365,-0.20808461
497000000,-12.688452,116.49104,-62.045025,-83.257309,-67.867844,-171.93565,0.013158076,-0.29118496
