Freq_Hz_,S11_DB_,S11_DEG_,S12_DB_,S12_DEG_,S21_DB_,S21_DEG_,S22_DB_,S22_DEG_
300000000,-6.2301416,-90.856071,-70.413429,144.99837,-69.349304,54.311386,-0.004130776,-0.21046011
301000000,-6.265399,-91.381897,-63.207161,14.591403,-68.032684,-58.666763,-0.0057872972,-0.22847575
302000000,-6.2885957,-92.118073,-72.799812,-173.19325,-74.618851,-32.433598,-0.00054053264,-0.13984673
303000000,-6.3262496,-92.631226,-69.033585,17.280537,-77.222527,148.87257,-0.0062987385,-0.29508302
304000000,-6.3687491,-93.123947,-73.855728,-153.20421,-82.088913,118.49794,0.004807469,-0.15267114
305000000,-6.3995948,-93.646317,-67.287781,-62.514885,-68.273689,-31.8339,0.0023855134,-0.29489741
306000000,-6.41717,-94.203964,-71.785164,144.26567,-77.625183,37.465931,-0.0048021716,-0.19614974
307000000,-6.4596429,-94.794479,-72.149887,171.00867,-73.903618,101.61252,0.001215435,-0.17638658
308000000,-6.503294,-95.425262,-82.917885,106.1801,-75.069435,-47.757332,0.0066031478,-0.21420778
309000000,-6.530098,-95.879311,-72.866852,17.083811,-71.567444,54.625999,0.0017417764,-0.25888827
310000000,-6.5564909,-96.525261,-67.971245,-175.12288,-65.281975,66.289818,0.0037140832,-0.2488462
311000000,-6.6092792,-97.122589,-66.843964,42.328403,-65.542023,-45.61153,-0.0014576246,-0.20026614
312000000,-6.6318874,-97.706848,-67.324005,49.579891,-69.047737,141.72838,-0.0029437144,-0.26189592
313000000,-6.6736684,-98.24791,-71.953018,-48.647263,-71.589691,176.36,0.00017084402,-0.17471991
314000000,-6.7113938,-98.83477,-68.209824,-118.80863,-67.726746,163.86757,-0.0093061328,-0.21880089
315000000,-6.7416568,-99.498917,-69.580833,-56.013996,-78.717377,68.054558,-0.0042305328,-0.19763765
316000000,-6.7898493,-100.10143,-72.596649,52.042397,-67.000313,-88.277435,0.012222189,-0.23415644
317000000,-6.8106098,-100.80647,-69.019157,-41.624905,-66.038673,25.004709,-0.0075520636,-0.14538585
318000000,-6.8656168,-101.35781,-65.611801,-124.21661,-63.372326,14.983602,-0.013809576,-0.21155675
319000000,-6.9110417,-102.1424,-68.161911,51.009327,-70.887459,-103.94231,0.0053473362,-0.22502987
320000000,-6.9687138,-102.6893,-66.441948,66.887917,-75.743225,-52.756264,-0.0057468615,-0.26047176
321000000,-6.9835615,-103.30486,-69.31646,-157.47679,-61.556278,103.84257,0.0026483624,-0.28228876
322000000,-7.017014,-103.91184,-72.782135,-60.583763,-66.18557,87.905479,0.0071143643,-0.28106022
323000000,-7.0735774,-104.5121,-71.380943,177.98743,-76.020546,-34.816257,0.0030700259,-0.26320997
324000000,-7.1198297,-105.23704,-68.344688,101.90911,-66.814018,16.311157,0.00089349173,-0.26831102
325000000,-7.1814327,-105.87006,-92.571564,92.972862,-67.554199,141.67798,-0.0073090964,-0.19611152
326000000,-7.1812696,-106.44863,-64.269905,12.711274,-65.995529,131.32077,0.002519527,-0.19718027
327000000,-7.2235169,-107.07028,-74.479561,-143.25627,-67.012596,3.1155329,0.0048390147,-0.26478788
328000000,-7.2632866,-107.75246,-70.872589,-116.64361,-72.181831,-96.938438,0.0095192203,-0.24460848
329000000,-7.3145399,-108.49175,-77.407928,-90.503883,-68.183205,59.38633,0.012629502,-0.18750989
330000000,-7.3565226,-109.30323,-70.562309,138.0451,-71.274475,-159.42827,0.0021309278,-0.22652118
331000000,-7.4065547,-109.87221,-65.336975,-173.54584,-62.797371,165.60751,0.0054486832,-0.23079474
332000000,-7.4510536,-110.71851,-69.100861,-63.850311,-69.055016,-16.418249,0.0086533362,-0.24270949
333000000,-7.4932146,-111.25936,-67.031052,139.98274,-68.824814,164.86128,0.00045919282,-0.25877088
334000000,-7.5414362,-111.97993,-64.144623,85.740173,-65.522514,-176.02887,0.0034388832,-0.36783075
335000000,-7.6130133,-112.85796,-69.196129,-120.28141,-64.523903,-123.33739,-0.00031737357,-0.29077816
336000000,-7.630702,-113.55952,-77.860718,43.313103,-78.632881,-27.304131,0.0014234949,-0.23201831
337000000,-7.6693931,-114.18806,-82.053268,44.274345,-67.944878,-150.71338,0.0064310054,-0.26720154
338000000,-7.731339,-115.01456,-69.863846,-24.475138,-74.991997,-56.79483,0.002496243,-0.1974232
339000000,-7.7767544,-115.76939,-73.509598,-122.36465,-65.564316,-42.788212,-0.0042774323,-0.22196975
340000000,-7.8073039,-116.58197,-64.296051,5.7921166,-68.819557,-116.79879,0.00040017863,-0.18691351
341000000,-7.8658681,-117.38824,-76.850708,80.056618,-71.867928,-94.941505,0.007570738,-0.24047151
342000000,-7.920918,-118.33392,-74.966072,-83.464676,-69.205627,142.95735,-0.00026766915,-0.29406023
343000000,-8.0021143,-119.16258,-83.944283,-174.83418,-75.795143,47.108368,0.0005616892,-0.25528485
344000000,-8.0692234,-119.81074,-66.874435,94.988487,-76.744965,-88.591461,0.011710541,-0.23438086
345000000,-8.1069403,-120.69827,-70.193016,-57.664356,-77.753189,-158.26234,0.0025955869,-0.27659443
346000000,-8.1657982,-121.48586,-63.729298,-164.03531,-68.833832,158.44633,0.004115989,-0.27677324
347000000,-8.2527018,-122.39244,-65.26297,122.0031,-84.656021,-39.475189,0.0081164632,-0.26279521
348000000,-8.3007803,-123.06373,-64.632256,77.779198,-69.061272,34.798073,0.004026507,-0.28710145
349000000,-8.3820219,-124.0352,-71.829094,-39.252586,-76.8274,142.54584,0.00039551957,-0.33342627
350000000,-8.4749928,-124.90402,-69.565941,-136.55011,-70.95929,69.295067,-0.0018403645,-0.23614985
351000000,-8.5689707,-125.53136,-79.06871,95.929794,-69.057922,-83.429352,-0.0087336414,-0.31494737
352000000,-8.661787,-126.08476,-67.982567,-8.967886,-73.358429,-44.913963,0.00066055969,-0.21298546
353000000,-8.6984434,-126.52885,-63.949833,146.16577,-70.659927,21.861811,-0.0052725468,-0.22109476
354000000,-8.7615252,-127.11295,-64.055222,93.370461,-73.377899,-25.317505,0.0058173388,-0.30645797
355000000,-8.7975645,-128.04538,-66.784233,-32.899849,-68.153152,-161.83508,-0.007202527,-0.1944685
356000000,-8.8503685,-128.75536,-66.880875,155.99156,-69.514984,-153.19206,0.0047986773,-0.27518758
357000000,-8.9220495,-129.4944,-73.526932,114.82922,-69.112343,32.149895,0.0053664683,-0.23482257
358000000,-9.0009947,-130.27051,-75.670044,-148.30347,-73.788719,-61.168587,0.010934435,-0.23169103
359000000,-9.0368557,-130.81711,-69.811302,-131.35748,-75.575241,130.96536,0.0043673548,-0.27404878
360000000,-9.0909882,-131.45406,-75.64962,-95.73069,-69.398918,-155.92448,0.0082105109,-0.23317452
361000000,-9.1457262,-132.08197,-70.526001,-9.4334192,-67.384346,141.61258,0.0049171024,-0.24180959
362000000,-9.1684933,-132.93163,-64.31411,-113.58727,-84.790497,-119.06413,0.015231485,-0.21304438
363000000,-9.2294874,-133.49336,-78.416534,-120.16568,-70.088036,-5.1679344,0.0028744619,-0.27789098
364000000,-9.2862988,-134.51863,-71.550804,25.831484,-80.876144,179.59114,0.0023322171,-0.18396305
365000000,-9.3456879,-135.11363,-70.291801,-68.758125,-61.483368,173.9265,-0.00015764841,-0.21183752
366000000,-9.3541031,-135.90556,-63.285385,-157.30811,-66.616211,84.527161,0.0081784735,-0.30150929
367000000,-9.4146662,-136.83548,-70.141869,111.58796,-72.346519,71.857147,0.0043926975,-0.20075253
368000000,-9.4530172,-137.67854,-62.377342,1.9334979,-68.332611,-170.33203,0.0091782603,-0.2419332
369000000,-9.4654455,-138.56766,-79.66375,57.916611,-66.5634,86.739906,0.0013510374,-0.31031874
370000000,-9.5235538,-139.43024,-78.014191,159.4068,-66.907829,32.188011,0.0058075152,-0.27481431
371000000,-9.5506401,-140.16792,-67.497246,-82.810555,-71.15168,162.90315,0.013182851,-0.21760598
372000000,-9.5960817,-141.21593,-80.722,-22.301586,-67.025337,-160.15633,0.0086419685,-0.26593834
373000000,-9.6707544,-141.96666,-73.025932,71.802689,-80.972641,-129.18202,-0.013474856,-0.27000713
374000000,-9.704936,-142.87688,-71.670631,124.39436,-65.976509,101.15331,0.0084166862,-0.26136085
375000000,-9.738553,-143.70032,-72.186668,-123.93188,-64.127846,-121.32227,0.011137382,-0.23695354
376000000,-9.7692842,-144.4917,-71.286545,-164.07283,-78.758797,-123.58852,-0.0036366887,-0.21610083
377000000,-9.8078232,-145.37656,-74.283691,57.318661,-63.931911,-29.40613,0.0053054523,-0.28052831
378000000,-9.857357,-146.23495,-76.641548,77.122276,-70.044762,-52.983307,0.00079359126,-0.29111147
379000000,-9.8884611,-147.20235,-64.047096,134.22479,-81.031029,175.06006,0.0044495887,-0.23841606
380000000,-9.9074287,-148.18443,-81.248268,99.554672,-69.826134,12.298667,0.009357526,-0.29299256
381000000,-9.9616776,-149.0786,-80.543633,81.428253,-67.412689,-68.428711,0.0070476872,-0.26458746
382000000,-10.001987,-150.04575,-72.967979,2.2955,-69.120155,87.115089,0.0070585418,-0.18321121
383000000,-10.021315,-151.00304,-70.555328,26.765665,-69.194626,-64.299103,0.0075883097,-0.1961448
384000000,-10.060506,-152.00288,-70.463867,24.749475,-70.903931,-75.069641,-0.0035747699,-0.19549765
385000000,-10.110677,-153.04539,-65.229393,-102.89077,-68.445641,152.91939,0.012907734,-0.24084193
386000000,-10.136148,-153.99713,-69.500801,106.81093,-64.481628,175.23103,0.0033468013,-0.27401996
387000000,-10.169278,-154.92809,-72.917625,-138.48405,-68.042267,-114.52231,0.0097635584,-0.27093166
388000000,-10.193153,-156.01065,-75.062866,73.552727,-69.071831,-14.418467,-0.0081360694,-0.27655309
389000000,-10.219844,-157.04179,-65.91024,65.730537,-71.629051,-168.4637,0.0051896232,-0.23985994
390000000,-10.251681,-158.05675,-65.297493,124.89524,-67.112511,-171.28223,-0.0069165407,-0.29464942
391000000,-10.288222,-159.18333,-64.540176,77.102547,-67.269737,-157.66443,0.010887957,-0.32845661
392000000,-10.339669,-160.22368,-70.674156,102.48902,-67.537392,116.58584,0.0055371015,-0.27628532
393000000,-10.376182,-161.19269,-74.624939,-148.15004,-68.427071,69.162125,0.00012839251,-0.23890695
394000000,-10.408603,-162.10098,-81.438293,-157.89165,-72.231682,-62.062557,-0.0030595046,-0.17207064
395000000,-10.427624,-163.12193,-69.555954,-137.9987,-76.754379,117.25073,0.015558041,-0.26624596
396000000,-10.458019,-164.22636,-77.337715,77.30246,-68.74781,37.020344,-0.0012406328,-0.21504301
397000000,-10.489746,-165.27971,-75.484062,-171.32872,-65.10746,169.02103,0.007607949,-0.23072457
398000000,-10.49722,-166.28421,-67.652405,96.931892,-64.124489,115.84074,-0.010315893,-0.21136589
399000000,-10.529076,-167.44073,-68.739838,172.21196,-68.491249,4.7927065,-0.0043621636,-0.25369471
400000000,-10.551929,-168.46294,-78.453186,-166.38826,-71.550133,168.68394,0.0036990822,-0.23936519
401000000,-10.552741,-169.60413,-78.892494,144.03693,-67.467781,-133.19252,-0.0040447535,-0.21036579
402000000,-10.578007,-170.7979,-75.139107,93.744057,-78.43605,-133.26839,-0.0063767694,-0.24595197
403000000,-10.612768,-171.85588,-73.49807,172.70193,-69.444794,-44.552906,-0.0037470567,-0.18554902
404000000,-10.608273,-172.96739,-69.626015,44.241386,-72.246361,173.66643,0.0026576756,-0.17029817
405000000,-10.640299,-174.15862,-68.976463,135.43129,-78.311409,15.826445,-0.0022195124,-0.16241752
406000000,-10.664394,-175.31017,-77.121407,149.94164,-70.80999,-143.44078,0.0039421963,-0.21827796
407000000,-10.682002,-176.58238,-64.678871,109.9854,-76.934776,-125.9884,0.001776967,-0.22986799
408000000,-10.695222,-177.59521,-65.731865,121.92668,-65.805817,-24.863281,0.010957157,-0.17930461
409000000,-10.718075,-178.79231,-70.561691,7.8824668,-71.673203,6.7868786,-0.0070197321,-0.14364579
410000000,-10.776216,-179.78528,-66.832039,-130.80969,-63.28413,-26.135592,-0.0041872612,-0.24640183
411000000,-10.768559,178.97984,-80.265007,-97.930458,-75.203613,-135.51645,0.0038609875,-0.20681542
412000000,-10.78274,177.91661,-82.520432,-16.413551,-67.496986,-151.40448,-0.0014542583,-0.21296474
413000000,-10.822732,176.81877,-66.63044,-68.885994,-64.254562,-108.33411,-0.0034146658,-0.19463482
414000000,-10.820026,175.82663,-71.256248,122.18561,-75.569427,-77.855186,-0.00037898711,-0.11999126
415000000,-10.835114,174.66681,-66.401215,-178.7861,-75.144035,126.99111,0.0055262432,-0.24409808
416000000,-10.872819,173.50177,-79.695007,139.26984,-66.447701,-62.980179,-4.2712058e-05,-0.19611146
417000000,-10.857037,172.37009,-70.342377,144.18187,-77.92794,-27.252007,0.0024843423,-0.18498918
418000000,-10.841244,171.50719,-69.920357,149.38934,-66.909134,121.24741,-0.0047122487,-0.14334795
419000000,-10.856804,170.35365,-65.18985,-38.500824,-80.656517,-98.576744,0.0039044369,-0.2870594
420000000,-10.863985,169.22124,-79.104973,91.328804,-72.837944,111.53449,0.0046068113,-0.21220604
421000000,-10.84833,167.99045,-75.581276,24.624096,-73.067947,111.93737,-0.010689034,-0.27012399
422000000,-10.84734,166.83919,-67.550064,-75.92997,-70.827805,-149.38345,-0.0040214346,-0.08378803
423000000,-10.835194,165.99829,-74.217728,-80.031479,-63.598862,-115.20745,0.0041066785,-0.1813184
424000000,-10.805733,164.73251,-68.009331,-25.577608,-69.369225,150.79587,0.0054140394,-0.17991142
425000000,-10.807673,163.60439,-76.658386,64.909203,-64.248497,126.26472,0.008864657,-0.19855274
426000000,-10.790688,162.47183,-67.05732,-97.23259,-75.085159,104.92447,-0.0074677882,-0.17561705
427000000,-10.785795,161.4243,-66.170563,-167.94139,-69.393463,59.576538,0.00081481383,-0.20939443
428000000,-10.762198,160.00673,-62.791077,-71.544266,-82.873138,161.06216,0.0027280417,-0.17436975
429000000,-10.7586,158.9839,-71.531029,-3.3141642,-68.854836,-115.11061,0.00073561689,-0.24320999
430000000,-10.759502,157.79332,-91.452431,73.903297,-67.752182,-127.72186,0.0085561974,-0.18828019
431000000,-10.75925,156.45602,-63.193027,149.26222,-75.191032,91.942863,-0.0071122954,-0.17691037
432000000,-10.75658,155.58804,-63.514828,-129.40823,-63.342556,140.12085,0.013262854,-0.1439808
433000000,-10.729227,154.50789,-67.997948,-81.573792,-68.487801,55.165592,0.0065235393,-0.18667087
434000000,-10.713872,153.32423,-67.200317,-63.799679,-69.841324,-97.230095,0.0042401222,-0.14023145
435000000,-10.691196,152.11844,-83.01339,121.2255,-69.060997,-175.39708,0.00088417466,-0.22241753
436000000,-10.694544,151.20663,-76.471718,81.042046,-79.651337,-92.588394,0.0032536825,-0.20903522
437000000,-10.685521,149.95212,-74.675194,102.76472,-72.308601,95.867867,0.0013898541,-0.21724859
438000000,-10.65701,149.02565,-82.293587,84.276558,-78.533905,-108.11155,0.0029127477,-0.090329736
439000000,-10.641072,147.95322,-71.218849,-22.916647,-81.276039,-175.95796,0.0095243864,-0.16165565
440000000,-10.608755,146.87267,-76.277771,121.06281,-74.708939,-0.48963961,-0.0041654962,-0.23265623
441000000,-10.581003,145.85736,-69.880363,-106.42081,-75.100151,-133.00909,0.0022240705,-0.20172621
442000000,-10.548761,144.69885,-68.109848,-53.803104,-68.768265,-7.5549979,0.0085928831,-0.20339338
443000000,-10.510272,143.84958,-65.586342,97.17067,-72.160057,17.389643,0.0031196915,-0.20080072
444000000,-10.484426,142.62041,-82.872932,-174.4843,-67.627991,45.902874,-0.00067205174,-0.189826
445000000,-10.486904,141.54842,-74.308762,4.1383743,-67.195694,-139.83141,-0.012646346,-0.2064171
446000000,-10.444964,140.70804,-69.665352,-178.19231,-76.596916,124.2234,0.0066827545,-0.22428164
447000000,-10.438104,139.56009,-69.525093,124.49612,-73.735695,-104.7976,0.0033742192,-0.10363182
448000000,-10.374359,138.63495,-66.246506,-108.46288,-68.322083,179.90211,0.011863887,-0.099037535
449000000,-10.349591,137.68579,-71.833656,6.1305013,-72.959717,167.60724,-0.0037732243,-0.13805339
450000000,-10.29149,136.65016,-67.336929,136.92889,-67.544594,-140.93864,-0.0072074537,-0.11574571
451000000,-10.281845,135.50385,-66.161369,-132.07536,-69.886261,-173.23479,-0.00072434981,-0.20184593
452000000,-10.255587,134.48393,-66.008728,145.9341,-74.791885,-87.455482,0.012254714,-0.21142079
453000000,-10.213079,133.67763,-70.100487,-143.00502,-80.045959,29.706303,0.0083577801,-0.053389717
454000000,-10.170284,132.51859,-68.724899,-7.7905231,-69.645439,2.0363994,0.0066501885,-0.13428807
455000000,-10.140866,131.5652,-67.429459,86.202843,-62.146004,26.23472,0.012587689,-0.15722001
456000000,-10.102843,130.63144,-79.190987,62.779099,-68.368721,-124.5629,0.010682416,-0.11487398
457000000,-10.084379,129.79245,-66.09449,7.0122666,-71.80497,168.31601,0.00050164107,-0.19461027
458000000,-10.05224,128.97748,-67.289345,38.19492,-68.980194,145.46706,0.0011533255,-0.17715186
459000000,-9.9967394,127.82922,-71.377998,-177.27182,-70.792915,108.75674,0.010444843,-0.13874047
460000000,-9.9510889,126.942,-66.541809,84.764824,-74.803978,-3.7685194,-0.0088934228,-0.10169551
461000000,-9.8960562,126.03187,-70.653824,63.158249,-63.380775,36.768215,-0.0014892162,-0.099592753
462000000,-9.8616343,125.19012,-68.433311,172.89563,-66.650894,117.59554,0.0078105349,-0.16711313
463000000,-9.8375072,124.15672,-70.39521,15.432022,-67.196243,94.772018,-0.0021128089,-0.23789512
464000000,-9.7863998,123.27094,-75.082146,-128.72646,-79.275139,-121.91859,0.014302753,-0.16598545
465000000,-9.7449713,122.33735,-68.608887,-118.16164,-63.849472,110.69627,-0.0022534404,-0.21206969
466000000,-9.7081308,121.49269,-66.636414,116.16596,-66.746582,96.48597,0.00075891026,-0.24545288
467000000,-9.662137,120.57154,-72.258636,-4.745728,-68.914589,-77.226326,0.0068817656,-0.15258008
468000000,-9.6181946,119.74845,-73.536079,146.80745,-76.361916,45.704319,0.01222477,-0.17977041
469000000,-9.5654249,118.82565,-74.575104,128.07848,-70.804695,-50.116314,0.0024874469,-0.2378349
470000000,-9.5093336,117.84609,-90.371521,32.216564,-71.055016,12.185266,0.012122033,-0.23425294
471000000,-9.4892607,116.86454,-75.220215,-157.83739,-70.632683,53.12672,0.0025386713,-0.22199535
472000000,-9.4428129,116.14405,-71.047791,-178.54637,-75.093254,115.97052,0.010928238,-0.15498355
473000000,-9.4145985,115.27013,-68.050514,-89.432304,-64.113991,-169.35503,0.0063482923,-0.16126858
474000000,-9.3741179,114.43106,-73.360321,-135.68137,-67.26693,122.82703,-0.0036247713,-0.15858161
475000000,-9.3271122,113.58426,-72.954941,5.9027905,-68.171928,-2.1348805,0.0076715164,-0.16463733
476000000,-9.2867413,112.75496,-74.291756,-67.40715,-65.729485,-120.51871,0.0030762341,-0.24752027
477000000,-9.2769575,111.99712,-70.070183,-67.816002,-74.771194,154.48166,0.015268629,-0.17009541
478000000,-9.2299347,111.20372,-77.785835,147.95938,-71.389786,-92.204437,0.0093218796,-0.18415621
479000000,-9.1778126,110.44125,-73.280945,15.205227,-70.366302,-31.89974,-0.0085396292,-0.22267523
480000000,-9.127284,109.71239,-71.487816,-107.68123,-67.364502,-121.28892,0.0060386201,-0.22402184
481000000,-9.0860872,108.82296,-75.408638,126.36338,-69.458954,-176.58382,0.00044469818,-0.16440129
482000000,-9.0489092,107.98685,-77.355492,144.20395,-70.975494,4.0018778,0.011441527,-0.20625642
483000000,-9.0036583,107.23317,-72.859192,-19.694975,-64.256584,-66.831329,-0.0048700683,-0.25738713
484000000,-8.9546232,106.44123,-72.719925,-164.60309,-67.812042,-146.36488,0.0036794257,-0.21781176
485000000,-8.9281797,105.55586,-71.120392,118.76917,-69.968636,86.241249,0.00045608683,-0.22639753
486000000,-8.8859072,104.97714,-71.14167,-21.353643,-71.200951,102.3331,0.0022282102,-0.15063977
487000000,-8.8416281,104.09512,-69.282219,-28.248955,-80.266212,-19.85714,0.0020631393,-0.22036554
488000000,-8.8265724,103.25472,-68.236237,86.878197,-74.869637,-57.796146,-0.012222157,-0.1929013
489000000,-8.7788391,102.60655,-73.583946,-30.163311,-75.964447,9.4744778,-0.008699663,-0.1902827
490000000,-8.7240896,101.98182,-77.493721,114.3669,-77.826126,-30.493889,0.008083391,-0.17131777
491000000,-8.6871643,101.16232,-73.965645,-47.588299,-73.313629,88.316734,0.0049900175,-0.19294821
492000000,-8.6360512,100.45573,-88.104729,135.11893,-91.150826,-94.697945,-0.0080136601,-0.21005346
493000000,-8.6167469,99.778297,-74.011749,8.6262741,-68.690063,26.771442,-0.00085820461,-0.18529092
494000000,-8.5817585,99.131638,-67.560394,39.841084,-81.72403,-30.058058,0.0065778177,-0.28484675
495000000,-8.536829,98.309021,-78.362373,-16.009048,-61.677864,-63.450882,0.0082316976,-0.1626282
496000000,-8.5018291,97.618126,-72.621185,1.691442,-67.882484,50.74884,0.0021904358,-0.13555373
497000000,-8.4549255,96.965759,-68.032295,62.458256,-73.568153,49.364178,0.0036664936,-0.35347921
498000000,-8.4210615,96.329147,-66.271408,-154.22714,-68.921471,-109.56789,0.0030912373,-0.26254532
