Freq_Hz_,S11_DB_,S11_DEG_,S12_DB_,S12_DEG_,S21_DB_,S21_DEG_,S22_DB_,S22_DEG_
300000000,-12.574662,-136.74371,-76.848419,-152.2618,-84.392555,161.28009,-0.00023090898,-0.21680674
301000000,-12.680577,-137.66397,-65.302063,43.2547,-77.388596,161.12973,-0.0032918716,-0.24277276
302000000,-12.702708,-138.85956,-74.868164,64.613342,-70.36734,48.686634,0.0017521266,-0.11982524
303000000,-12.780334,-139.97798,-67.164368,48.618435,-75.499931,1.0353063,-0.0015855461,-0.2492338
304000000,-12.861557,-140.90077,-69.024017,10.057259,-73.820534,-156.41643,-0.0003763983,-0.15466115
305000000,-12.918293,-142.2298,-73.616837,-103.40126,-65.18071,13.819396,0.0022220006,-0.22686364
306000000,-12.981647,-143.10744,-78.272316,119.62901,-66.389488,-178.00197,0.0022401116,-0.1798995
307000000,-13.043985,-144.55171,-73.301476,130.64305,-66.073601,134.48654,0.0061957855,-0.16107805
308000000,-13.105618,-145.64264,-76.587128,-86.606247,-69.227257,-121.46373,0.0054667806,-0.2317853
309000000,-13.181128,-146.6275,-64.528381,-114.43568,-70.574608,89.512093,0.0016574211,-0.23216055
310000000,-13.190835,-148.10207,-75.845726,-124.35879,-81.605232,-67.413925,0.0044061444,-0.22825558
311000000,-13.285373,-149.18658,-66.195625,142.38719,-67.13887,-109.9732,-0.0053886585,-0.23463511
312000000,-13.315218,-150.39297,-79.136597,25.734501,-73.838676,-161.64874,-0.0039302325,-0.24059197
313000000,-13.377359,-151.61478,-71.290169,67.898651,-72.346527,-12.068518,0.0025671292,-0.16434917
314000000,-13.425636,-153.17719,-69.198967,139.73953,-73.738449,71.471283,0.0005301123,-0.23426695
315000000,-13.477057,-154.33928,-67.03801,-114.15677,-77.646049,35.009315,-0.012115727,-0.21066737
316000000,-13.541502,-155.47511,-71.866959,-6.1684108,-64.956581,53.825001,0.010516633,-0.2270547
317000000,-13.585354,-156.71271,-70.795876,28.073242,-72.579727,65.889153,-0.0060900589,-0.23107421
318000000,-13.613811,-158.06981,-66.977097,39.919266,-72.635155,178.34036,-0.010621565,-0.20652114
319000000,-13.645403,-159.42384,-66.192909,-39.665222,-79.623146,31.654581,-0.00019104265,-0.19873169
320000000,-13.68375,-160.77046,-66.708893,45.399895,-76.176765,60.735764,0.00057618343,-0.25272366
321000000,-13.708815,-161.89992,-72.259193,132.08533,-65.98243,178.01711,0.0038744363,-0.25371456
322000000,-13.7494,-163.29291,-77.234901,98.511879,-86.198257,-92.626114,0.0011735113,-0.28878614
323000000,-13.810551,-164.66034,-76.346382,-96.867157,-62.962742,84.142815,-0.0021912821,-0.25572446
324000000,-13.830216,-165.94965,-62.373493,-82.874992,-62.40657,-45.045338,0.014381186,-0.19803289
325000000,-13.899714,-167.25436,-65.047241,103.98041,-79.442268,35.493324,-0.013777375,-0.17227796
326000000,-13.863983,-168.7919,-68.864105,30.417606,-69.505669,158.43077,-0.0019255662,-0.19874661
327000000,-13.932415,-169.99173,-64.642059,-7.0381141,-69.654633,-159.57849,0.0086430022,-0.25666973
328000000,-13.91912,-171.31464,-68.075912,8.505723,-69.769684,148.17555,0.0027746069,-0.22576523
329000000,-13.960926,-172.78548,-68.983398,38.21394,-68.250153,-89.750885,-0.0072243074,-0.21260124
330000000,-13.963059,-174.11188,-69.43576,-8.8505497,-73.548515,24.609465,0.0031258997,-0.2136846
331000000,-13.974043,-175.41154,-69.841721,-48.494011,-69.196709,-141.35492,0.0059316,-0.26601219
332000000,-13.956312,-177.03654,-71.953896,1.719376,-74.618935,107.5816,0.0044501056,-0.26512188
333000000,-13.986658,-178.2081,-69.732742,61.124073,-76.652466,147.63969,-0.0011632123,-0.26275292
334000000,-13.994095,-179.49203,-87.071907,143.3981,-66.311356,131.59334,0.0064232512,-0.25795618
335000000,-14.019516,179.05359,-71.015991,-21.999634,-70.072372,-74.049049,0.00055961858,-0.28038624
336000000,-13.988644,177.67647,-63.815388,86.014038,-78.1278,-97.887794,0.0066770683,-0.25444317
337000000,-14.005042,176.28111,-68.907173,-25.384848,-63.051819,-75.133369,-1.2942986e-06,-0.28914368
338000000,-13.983719,174.78011,-64.083481,-132.43774,-77.197136,-176.00517,0.0018494175,-0.28710002
339000000,-13.990594,173.50218,-70.962486,-111.22486,-79.579437,-64.405357,-0.004228978,-0.25469962
340000000,-13.973419,172.24065,-61.140785,-80.728439,-71.02578,-161.60725,0.0036825293,-0.20025347
341000000,-13.954091,170.89693,-71.551361,130.40598,-67.57103,-9.1727285,0.010294546,-0.21250376
342000000,-13.911026,169.39601,-69.426994,139.84198,-67.538223,25.339733,0.0011481497,-0.30124974
343000000,-13.865277,167.94147,-66.403984,76.725822,-73.158356,108.73009,0.0069045089,-0.22190428
344000000,-13.852191,166.51402,-71.232689,-63.151505,-65.963097,-159.97214,0.0068119834,-0.2728366
345000000,-13.837191,165.43791,-76.089958,176.41924,-70.789131,107.923,0.0066150371,-0.27101496
346000000,-13.809401,164.15533,-66.849541,2.0962644,-66.158234,43.855598,0.012739971,-0.25258678
347000000,-13.774379,162.86267,-72.654236,-114.74104,-65.919884,-53.676975,0.0045980192,-0.20505452
348000000,-13.72413,161.63364,-65.345718,38.051468,-69.790611,135.41634,-0.0017784713,-0.28746417
349000000,-13.683586,160.35161,-67.868111,103.67604,-67.525192,102.35437,0.00065331272,-0.30885991
350000000,-13.606721,158.98534,-67.783646,147.88945,-67.833138,71.293198,0.00064140692,-0.18907847
351000000,-13.545105,157.73973,-63.797874,57.22337,-73.947426,109.66067,-0.0071032206,-0.293762
352000000,-13.476285,156.11812,-64.56459,23.404121,-69.759163,-30.963007,-0.0024021054,-0.19305953
353000000,-13.444289,154.81169,-74.326385,120.3955,-65.104607,94.309578,0.0011196827,-0.25287819
354000000,-13.402043,153.37077,-72.050026,168.51421,-81.134293,3.857723,0.011752879,-0.30295748
355000000,-13.345921,151.91682,-64.036263,55.739586,-67.628609,-22.848444,-0.0099871503,-0.15670429
356000000,-13.327863,150.76662,-71.467171,-6.8911114,-87.906464,-44.57336,0.0057490906,-0.26807404
357000000,-13.252605,149.48067,-65.638947,-102.77061,-76.373787,-91.910042,0.0089545548,-0.22636718
358000000,-13.192552,148.18454,-71.2985,-157.91095,-65.085487,-17.955904,0.010914294,-0.26266155
359000000,-13.121288,146.78044,-65.730583,43.815929,-71.768593,157.81354,0.0032816185,-0.32004476
360000000,-13.072066,145.61868,-81.594254,89.621071,-72.989723,-115.37661,0.0060655042,-0.25279224
361000000,-13.020176,144.4231,-70.206383,104.59122,-69.309662,-14.015224,0.00093852379,-0.23524366
362000000,-12.947921,143.06102,-75.191849,-165.18602,-81.495644,164.6514,0.0040244381,-0.2025156
363000000,-12.933034,141.84351,-68.827705,77.97403,-70.888474,5.5763812,-0.00013849213,-0.25534299
364000000,-12.831981,140.36258,-70.068794,-61.142891,-73.964996,-128.72314,0.0047107614,-0.19354661
365000000,-12.812406,139.30226,-69.53875,-2.0203478,-64.077217,-64.050247,0.0053431997,-0.23385221
366000000,-12.758341,138.33022,-69.578247,50.783985,-66.559494,62.575619,0.014093244,-0.27258325
367000000,-12.683573,137.02473,-70.207901,-116.78918,-82.1828,17.793064,0.0054947021,-0.26919451
368000000,-12.618669,136.03732,-70.933197,65.149277,-62.960892,98.844124,0.0051306733,-0.2379912
369000000,-12.549161,134.73184,-72.033867,-159.53886,-70.534126,37.119091,0.0003820601,-0.29094937
370000000,-12.483791,133.56816,-75.327454,19.46743,-65.660515,62.995934,0.010214489,-0.25762019
371000000,-12.429111,132.46008,-69.956192,-55.471134,-68.010368,-50.791508,0.0051368787,-0.27041599
372000000,-12.371769,131.47314,-70.605782,114.29773,-68.82737,169.64058,0.0078399917,-0.2973735
373000000,-12.306499,130.27768,-73.696716,-8.2999725,-77.687714,66.377647,-0.0038183052,-0.30427837
374000000,-12.257456,129.04893,-73.055222,-69.790344,-79.052612,-103.77031,0.0054414445,-0.29080641
375000000,-12.222638,128.27551,-76.962112,72.830833,-78.74884,2.2201312,0.0098978607,-0.22117968
376000000,-12.157584,127.23891,-63.364449,-85.48967,-66.764442,134.38939,0.0017045153,-0.2382541
377000000,-12.080597,126.20388,-65.221001,-109.89463,-78.677177,-169.29764,0.0085174451,-0.25589216
378000000,-12.017314,125.18497,-70.352303,50.35239,-68.947754,-43.810146,-0.0021925771,-0.2944158
379000000,-11.944978,124.40294,-71.592117,-56.771767,-65.218239,88.981949,-0.0030460344,-0.23358281
380000000,-11.87331,123.38194,-66.714462,-165.21887,-69.184746,-124.72296,0.012329571,-0.28240737
381000000,-11.785232,122.28734,-71.73893,1.8485649,-64.074768,14.882872,0.0047009354,-0.2330213
382000000,-11.72735,121.25764,-68.464333,153.41681,-69.284523,-20.781843,0.0037575343,-0.12892392
383000000,-11.668103,120.26427,-74.180489,-81.246819,-74.286713,-7.0581584,0.0083851665,-0.22005819
384000000,-11.608426,119.15832,-87.666977,-146.79185,-62.093258,130.61992,-0.0034657016,-0.22920263
385000000,-11.534138,118.18542,-73.473114,-174.55373,-72.083733,29.840021,0.0030462276,-0.16429573
386000000,-11.500734,117.30742,-78.646683,-2.4240346,-78.264595,-117.35781,0.0044516572,-0.22448431
387000000,-11.43568,116.30836,-69.898186,-154.48259,-66.99958,132.45465,0.0053033843,-0.23472358
388000000,-11.370865,115.63438,-60.46207,-163.8231,-77.829193,-126.0032,-0.0042792461,-0.23641945
389000000,-11.320057,114.73703,-74.332993,66.490135,-68.260361,-7.5985856,0.0059414231,-0.25940129
390000000,-11.22749,114.05128,-76.726471,168.88551,-67.593727,-39.159973,-0.0016003065,-0.25422463
391000000,-11.133064,113.07823,-64.923058,144.96542,-65.590256,-170.46442,0.0040663346,-0.29964149
392000000,-11.072358,112.04571,-72.999435,-95.65065,-66.301369,103.61315,0.009303282,-0.28917184
393000000,-11.038723,111.05717,-80.284737,25.926929,-65.673309,-8.3439903,0.0010632654,-0.25300616
394000000,-10.977943,110.18979,-75.448967,-133.91705,-69.548027,-148.37061,-0.0051097888,-0.21420681
395000000,-10.91906,109.42079,-77.741211,-141.74071,-72.946335,38.308456,0.0083340108,-0.23651993
396000000,-10.859046,108.48917,-73.637917,153.41022,-68.017883,-112.70961,-0.00086597196,-0.20602034
397000000,-10.825976,107.61937,-72.894203,-143.75096,-64.077843,-90.79039,0.0071438258,-0.24335033
398000000,-10.768352,106.78912,-68.550491,5.0229821,-75.679832,96.194832,-0.0075486922,-0.21622851
399000000,-10.721963,106.22507,-62.994164,53.857517,-67.009445,129.70862,-0.0096109556,-0.32427779
400000000,-10.651025,105.62148,-66.68634,-53.359417,-66.582687,63.889336,0.0038201238,-0.2529088
401000000,-10.607245,104.6949,-65.876198,-102.43443,-85.289459,111.09707,0.0030989975,-0.20227943
402000000,-10.562139,104.14255,-81.527771,-23.875868,-71.66787,98.619125,-0.0052352259,-0.2258283
403000000,-10.498712,103.32084,-71.405037,-136.26704,-76.147316,2.0726674,-0.0040639271,-0.1727585
404000000,-10.435945,102.64249,-74.207031,-119.66331,-80.268105,-102.53302,-0.00078104989,-0.18099268
405000000,-10.364748,101.95593,-67.019539,-118.58817,-70.339951,-28.856747,0.0013251593,-0.14285225
406000000,-10.312938,101.30979,-70.027435,165.12038,-79.831909,-133.76276,0.0032407492,-0.24279507
407000000,-10.238311,100.67387,-64.198799,-159.00075,-69.224686,10.263926,0.00463629,-0.22546087
408000000,-10.150775,100.03745,-70.015839,-18.065697,-74.252235,-135.17551,0.0050019114,-0.2033478
409000000,-10.104303,99.199707,-71.412903,146.14413,-67.386208,53.41534,-0.0015702678,-0.18158169
410000000,-10.050297,98.493256,-70.074417,-77.614037,-70.335571,146.87817,0.002737355,-0.24503274
411000000,-9.9951143,97.680923,-67.140648,117.37148,-75.349648,-1.3303082,0.007239962,-0.22558266
412000000,-9.9301567,97.169968,-65.687691,-1.6737043,-66.117073,-165.90865,-0.0051261159,-0.24510838
413000000,-9.9031515,96.476936,-64.61422,-172.89319,-67.647087,-69.843887,0.0024714067,-0.15782829
414000000,-9.839344,95.983009,-70.984848,169.54416,-69.924355,-137.14996,0.0066093509,-0.16689864
415000000,-9.7896166,95.395844,-67.136177,19.452841,-67.340103,-173.09659,0.010454657,-0.23835191
416000000,-9.6993027,94.702179,-72.690872,79.852951,-73.265701,-67.850006,0.0033540437,-0.21324372
417000000,-9.6424294,94.092796,-69.660553,-117.25974,-70.269867,25.374836,-0.0034563753,-0.22371681
418000000,-9.5942326,93.291214,-71.360649,21.874786,-67.536972,-167.59123,-0.0077118012,-0.14006306
419000000,-9.5436764,92.676224,-70.021217,15.0865,-70.344948,76.603043,-0.00031633806,-0.21237588
420000000,-9.4927235,92.237755,-68.954552,-175.06606,-64.265724,-161.83954,0.0036121786,-0.15990013
421000000,-9.4404964,91.666992,-70.191727,25.370518,-64.577553,94.20269,-0.010395812,-0.25048169
422000000,-9.3652992,91.096184,-67.06839,93.164734,-70.315269,-41.043053,0.0004131204,-0.075009003
423000000,-9.2804461,90.600029,-74.964798,32.078068,-71.458191,-145.60458,0.0098715173,-0.16798577
424000000,-9.2518301,89.998001,-80.971764,-127.10343,-67.496078,-49.5285,0.011201414,-0.17441204
425000000,-9.1852636,89.519478,-70.424843,45.823544,-73.508003,-154.52043,-0.0023723203,-0.151308
426000000,-9.1291857,88.850174,-75.770607,-21.09012,-70.060326,-139.76732,-0.010583939,-0.19614786
427000000,-9.0595179,88.260399,-67.313286,-12.368108,-67.782249,21.50865,0.0030855464,-0.23850127
428000000,-8.9825048,87.622826,-77.481819,-96.783134,-64.684296,52.572937,0.0073355795,-0.12593801
429000000,-8.9060869,87.170471,-64.61599,-126.93308,-70.350876,6.9619026,0.0014084859,-0.16910879
430000000,-8.843049,86.497978,-68.082603,-66.070824,-69.854195,20.5795,0.02139838,-0.16638476
431000000,-8.7781649,85.771133,-72.781929,90.698822,-71.679703,179.06409,-0.020147113,-0.18789874
432000000,-8.7326393,85.128914,-72.051949,-178.29417,-83.504013,-41.538002,0.0094515467,-0.15011285
433000000,-8.6785383,84.56839,-69.679413,-110.1552,-78.629723,64.829086,0.014392023,-0.18934874
434000000,-8.6171026,83.843536,-72.157829,178.04054,-74.666229,147.28435,0.0040161624,-0.18204482
435000000,-8.5753107,83.421379,-69.275208,-100.17041,-72.914108,-68.010887,-0.00050868909,-0.23693076
436000000,-8.5304871,82.658363,-65.922104,-118.66742,-79.662926,133.37404,0.0051906575,-0.22442426
437000000,-8.4939165,82.120728,-70.018799,106.65595,-70.328026,1.3427179,-0.0016552054,-0.24402501
438000000,-8.4558659,81.55648,-66.724785,-142.76485,-68.08609,-122.29432,0.0093585588,-0.13646705
439000000,-8.406312,80.842857,-62.962765,126.34688,-83.894928,74.543144,-0.00088720274,-0.24418618
440000000,-8.3537483,80.348328,-69.532753,31.360838,-81.70694,-72.291504,-0.0088412855,-0.23166876
441000000,-8.3121872,79.848427,-78.455109,-151.77199,-68.142387,-156.48148,0.010592037,-0.12218992
442000000,-8.2532282,79.188866,-72.63604,154.32512,-82.61042,95.827469,0.0078415424,-0.20815372
443000000,-8.2361832,78.652626,-74.351585,-13.077194,-62.771103,96.796631,0.0056994553,-0.21132101
444000000,-8.1671228,78.085564,-68.031082,171.69968,-65.434692,-115.27051,3.2098484e-05,-0.16314551
445000000,-8.1371222,77.485092,-74.073723,96.310822,-65.453644,-15.912189,-0.0062855175,-0.2348063
446000000,-8.1176691,77.064606,-66.658875,-13.96207,-75.250504,37.150665,0.0020879779,-0.1817199
447000000,-8.0640984,76.536873,-67.723022,-112.24109,-68.237633,44.529675,0.01233938,-0.13885941
448000000,-8.034749,76.146538,-78.969162,123.45288,-66.079178,-24.74218,0.010003234,-0.18414326
449000000,-7.9782834,75.453514,-66.2631,43.386375,-72.166161,173.56276,-0.0033890186,-0.1633127
450000000,-7.9651752,75.006508,-68.581963,-10.45433,-71.053963,-111.7266,-0.0079493448,-0.096115313
451000000,-7.901669,74.51889,-69.536057,82.109985,-70.404701,-99.43631,0.0079247439,-0.18797655
452000000,-7.8788886,74.140572,-74.350021,-100.04825,-83.996147,-64.75798,0.0071639833,-0.13774361
453000000,-7.8441086,73.618103,-75.92955,-113.57388,-62.964893,121.64954,0.0093409941,-0.097394496
454000000,-7.8254662,73.157295,-63.858608,2.013473,-68.428223,174.10535,0.0014602408,-0.11027884
455000000,-7.7757163,72.711945,-73.202919,-53.683815,-70.908173,-2.2801528,0.010093109,-0.17517537
456000000,-7.7393556,72.178619,-69.259651,-53.749252,-73.750053,29.445356,0.0094851255,-0.10266516
457000000,-7.7161455,71.65654,-65.037483,-136.71361,-81.011612,161.99072,0.0040704724,-0.16322671
458000000,-7.7013617,71.452682,-66.245567,169.31566,-70.018936,-131.58844,-0.0054718563,-0.19205132
459000000,-7.6365781,70.821022,-67.387589,18.392061,-66.541687,167.66246,0.0080761565,-0.19253504
460000000,-7.632287,70.420395,-66.256065,-105.47802,-69.475685,4.9156799,-0.0021899873,-0.10751898
461000000,-7.5783954,70.122063,-66.83976,-52.933922,-74.955833,164.97502,0.0024206988,-0.078916445
462000000,-7.550602,69.529327,-70.091858,96.02948,-66.383194,-105.52642,0.0066460529,-0.15264778
463000000,-7.5110164,69.215874,-80.109077,55.349716,-70.496307,114.01112,0.0038475387,-0.24475969
464000000,-7.4613729,68.900032,-74.976051,-89.509415,-68.228241,-172.5424,0.0046016397,-0.13886285
465000000,-7.4225545,68.393295,-74.185043,149.36798,-73.105064,159.30151,-0.0027478882,-0.23567577
466000000,-7.386085,67.959732,-90.95694,32.122707,-73.524193,-97.181946,0.0020626218,-0.25734052
467000000,-7.3578973,67.465126,-74.917267,-148.28157,-68.840218,107.73454,0.0064015393,-0.14388129
468000000,-7.3348522,67.066139,-67.455956,-79.935196,-64.305077,79.644615,0.016500946,-0.15437286
469000000,-7.2686968,66.50985,-69.732521,-5.1301618,-73.169922,-142.87373,0.0052294401,-0.17039281
470000000,-7.2468042,66.200287,-72.091087,-126.20155,-65.616264,87.487549,0.010859554,-0.19240002
471000000,-7.2078433,65.700829,-66.865448,156.18192,-75.986504,-56.189415,0.001771792,-0.20311442
472000000,-7.1990576,65.318291,-68.483803,-158.36163,-64.466232,-55.603596,0.0079862392,-0.22624058
473000000,-7.1645241,64.765503,-70.141136,-106.81152,-65.025352,-78.172287,0.0079671191,-0.10509792
474000000,-7.1439991,64.465263,-71.951584,-93.589424,-81.595917,-33.651443,0.0021402421,-0.17626952
475000000,-7.1059918,64.144768,-74.917809,149.07793,-77.876495,178.23061,-0.0020850976,-0.12690815
476000000,-7.0712743,63.613884,-72.672371,26.766968,-72.89682,146.20219,0.0056120744,-0.18126309
477000000,-7.0525713,63.262703,-80.564072,57.185696,-66.706627,-134.13895,0.0077655739,-0.16283314
478000000,-7.0337882,62.838634,-71.930717,-46.62661,-70.896561,-56.103912,0.016184259,-0.22487499
479000000,-7.0068259,62.543884,-69.683983,29.606394,-68.257729,-47.649212,-0.0087349387,-0.22293833
480000000,-6.9608946,62.095387,-68.314163,-2.6829236,-71.597458,80.515694,0.0075293924,-0.21328455
481000000,-6.9364214,61.703308,-68.242203,-171.51776,-68.633896,40.732742,-0.0017139893,-0.11432586
482000000,-6.920217,61.21241,-70.935837,-2.1143382,-67.086197,-41.019344,0.00094887591,-0.21431354
483000000,-6.8911018,61.008495,-67.81559,111.34092,-83.381813,-57.393925,-0.007506425,-0.18371353
484000000,-6.8445649,60.607597,-68.305862,-83.484589,-68.684204,39.560665,0.0028832573,-0.17721559
485000000,-6.8287921,60.061455,-78.826981,47.567833,-67.116936,59.004135,0.011841686,-0.19642137
486000000,-6.7889452,59.832989,-74.69342,29.40836,-64.293419,-96.177086,-0.0040986468,-0.20074986
487000000,-6.7540169,59.347363,-66.172821,-127.00452,-71.429062,-135.48311,0.0037839152,-0.19208457
488000000,-6.7258339,58.875206,-76.8853,-99.820488,-62.744663,156.82791,-0.003260785,-0.15688194
489000000,-6.7266726,58.440784,-69.222198,75.03344,-69.439278,34.125683,-0.004634507,-0.19243005
490000000,-6.7124581,58.145157,-71.97641,-34.774921,-69.352455,-36.958996,0.0065400815,-0.16661331
491000000,-6.6779127,57.915005,-69.814705,13.84592,-74.248764,-165.93918,0.0047991946,-0.13640217
492000000,-6.6426973,57.57637,-77.170464,-59.215092,-67.708061,78.430412,-0.004804763,-0.21764876
493000000,-6.6244011,57.105682,-72.604095,-175.42253,-71.09375,23.300461,0.0016041161,-0.16402766
494000000,-6.6082573,56.791962,-91.169113,-5.6614461,-67.582565,34.441044,0.00068385346,-0.25095123
495000000,-6.593431,56.267586,-70.62851,-171.06856,-78.642929,-31.535069,0.0078854682,-0.17901918
496000000,-6.5654521,55.889351,-68.30864,34.4902,-73.036766,18.943848,0.0067117023,-0.19490625
497000000,-6.5338106,55.636848,-71.168556,81.216789,-69.331512,-0.50573212,0.00083241297,-0.33363661
498000000,-6.5262294,55.385483,-66.660591,-112.4307,-68.674271,40.74762,-0.0025494806,-0.19365294
499000000,-6.498394,55.085953,-70.308105,69.276161,-63.98077,-153.51465,0.020270001,-0.19348386
