Freq_Hz_,S11_DB_,S11_DEG_,S12_DB_,S12_DEG_,S21_DB_,S21_DEG_,S22_DB_,S22_DEG_
300000000,-10.014277,-133.27649,-69.059006,-167.00603,-81.981461,27.280226,-0.0085406667,-0.2271056
301000000,-10.063725,-133.9017,-71.876152,-41.695946,-67.246101,-60.427776,-0.0009120584,-0.17646308
302000000,-10.070001,-134.84012,-69.977493,-138.98546,-61.725281,-104.44859,0.0073087034,-0.14944355
303000000,-10.095727,-135.69038,-74.688248,94.846405,-75.802284,103.99785,-0.005957339,-0.24012525
304000000,-10.136727,-136.45844,-71.46022,150.98309,-70.995331,-65.698418,-0.0025702016,-0.13507806
305000000,-10.160751,-137.31743,-65.057381,149.50752,-70.552925,129.84738,0.0025014172,-0.22858219
306000000,-10.184431,-138.19228,-65.474457,-10.624642,-69.561989,124.39938,0.0022804728,-0.20478062
307000000,-10.212711,-139.14459,-79.6399,130.23326,-70.599709,-171.64104,0.003243336,-0.14997801
308000000,-10.239899,-139.90108,-76.523773,-107.09088,-71.127426,45.961624,0.008803173,-0.25827745
309000000,-10.281083,-140.78198,-77.057556,139.65353,-67.716927,49.909191,-0.0021532108,-0.25141323
310000000,-10.288918,-141.60158,-82.012886,-3.3496423,-81.473259,-179.15073,0.0026695759,-0.26784986
311000000,-10.335988,-142.55066,-64.347755,171.21623,-85.328873,-48.834953,0.0019668881,-0.22018328
312000000,-10.340348,-143.32222,-77.567459,-122.94313,-67.834824,142.70395,-0.0016023782,-0.25418201
313000000,-10.375041,-144.26814,-70.367432,99.842102,-71.342598,-51.490753,0.0072001638,-0.16466078
314000000,-10.397696,-145.21344,-67.475449,158.29189,-74.235931,-25.882223,-0.011156415,-0.25266135
315000000,-10.417094,-146.07948,-73.374626,-75.392632,-74.238014,141.36955,-0.0077473284,-0.23417416
316000000,-10.450314,-147.06665,-73.475304,99.961479,-66.071899,118.61617,0.004750065,-0.28634197
317000000,-10.483245,-147.87933,-66.471016,-60.095112,-76.545288,90.147476,-0.007573586,-0.21925458
318000000,-10.496861,-148.83452,-69.77771,95.232841,-68.211014,133.40941,-0.0034760642,-0.24093215
319000000,-10.514279,-149.68008,-68.831367,79.552994,-69.996307,-152.56227,-0.0063575855,-0.27113336
320000000,-10.535728,-150.78186,-65.631744,74.942665,-74.682266,169.37163,-0.00081574346,-0.26948059
321000000,-10.556301,-151.54654,-82.058739,-103.99828,-67.356834,81.312477,0.0039820243,-0.22483695
322000000,-10.565968,-152.49507,-66.592659,92.379189,-71.793472,-113.00691,0.0020351957,-0.22749247
323000000,-10.598392,-153.36407,-72.106873,-89.076118,-78.744377,49.543461,-0.0015733753,-0.26849654
324000000,-10.612236,-154.40948,-70.709335,-141.3354,-75.982124,-64.392769,0.010258391,-0.20527142
325000000,-10.64129,-155.33203,-67.887161,-171.37045,-76.415993,19.934143,-0.013705444,-0.15450703
326000000,-10.629786,-156.20616,-67.057594,131.82909,-68.192825,-84.063232,-0.0034390178,-0.22351819
327000000,-10.643131,-157.02113,-69.023392,-11.978373,-72.467461,-50.821774,0.00035928239,-0.23278606
328000000,-10.659553,-157.91902,-77.853004,-121.84092,-69.349678,86.779388,0.0097299824,-0.26000288
329000000,-10.676734,-158.8855,-70.131279,117.93124,-85.255196,-111.82656,0.0097020874,-0.18467006
330000000,-10.671293,-159.99718,-86.559616,172.56822,-69.369278,2.6438801,0.0030705433,-0.23577397
331000000,-10.690434,-160.79263,-73.766808,-111.31504,-63.431038,-92.891861,0.012278978,-0.26087719
332000000,-10.696153,-161.98009,-71.667572,120.08173,-65.388809,141.00655,0.0016087738,-0.20181262
333000000,-10.715538,-162.65724,-80.207169,74.912865,-72.665955,-136.24797,-0.0043126722,-0.27415195
334000000,-10.727148,-163.64995,-64.066833,55.181335,-68.745209,79.797287,0.0062666112,-0.31944954
335000000,-10.728169,-164.62254,-75.822479,137.68875,-74.427437,153.95531,-0.0067410166,-0.31802633
336000000,-10.728264,-165.47726,-68.712967,123.36146,-69.156082,-77.177162,0.0044226949,-0.27464652
337000000,-10.714289,-166.42297,-68.225945,113.51717,-65.23275,80.930779,0.0034642315,-0.27734298
338000000,-10.725555,-167.51588,-70.689423,-148.37947,-65.873383,-98.45723,-0.0004017688,-0.21497358
339000000,-10.726493,-168.3399,-78.523903,44.150364,-71.860687,-108.85028,0.00031786805,-0.26277429
340000000,-10.713579,-169.24237,-67.3797,170.71346,-75.787811,-103.59247,0.0043306337,-0.21421817
341000000,-10.69355,-170.2282,-67.290787,53.254601,-77.729874,-95.006332,0.014699551,-0.26554948
342000000,-10.680921,-171.17636,-79.964134,81.508247,-67.259094,124.36003,0.0091606947,-0.30359203
343000000,-10.66434,-172.23228,-66.751091,-39.709633,-71.773514,35.756401,-0.0042836512,-0.22750515
344000000,-10.67063,-173.28377,-68.900414,-122.81152,-70.353271,-36.369469,0.0056787734,-0.24574561
345000000,-10.650581,-174.32945,-67.890579,-153.07069,-76.633049,121.02013,0.0064139459,-0.26835465
346000000,-10.639286,-175.116,-63.681,69.335701,-68.405594,25.283054,0.0021345501,-0.27690795
347000000,-10.637969,-176.15024,-67.086113,-41.830383,-65.570305,132.62094,0.002613696,-0.24158011
348000000,-10.607249,-177.21523,-69.794678,-178.98958,-88.190735,-115.01129,-0.0021674552,-0.33003697
349000000,-10.586719,-178.32953,-70.704239,-33.038647,-67.398109,-27.124012,0.0061270264,-0.31210709
350000000,-10.555491,-179.46416,-68.689697,-134.36905,-65.827385,-113.2174,0.0067070499,-0.22524501
351000000,-10.568423,179.61752,-66.218918,-152.31644,-66.197601,74.053276,-0.0082859732,-0.30053622
352000000,-10.538868,178.42535,-65.824821,125.68925,-65.964127,6.8535604,0.0064180819,-0.23696455
353000000,-10.556187,177.45293,-67.93557,105.83232,-69.580269,21.053001,-0.0028942388,-0.24927646
354000000,-10.549243,176.33972,-65.393127,-100.04734,-63.845493,156.96556,0.012180371,-0.3060835
355000000,-10.549262,175.48062,-75.154648,125.59767,-68.9944,41.762718,-0.0054350523,-0.21934755
356000000,-10.527736,174.62335,-65.610535,86.257813,-67.062935,137.9097,0.005110506,-0.22912107
357000000,-10.500403,173.61482,-74.727943,-123.73298,-67.624702,-20.181414,0.0082575344,-0.34212866
358000000,-10.463846,172.6796,-69.073631,-26.151094,-69.822174,-106.4756,0.014320297,-0.26851499
359000000,-10.460289,171.52167,-77.758026,-50.627872,-71.705734,52.271301,-0.00067852426,-0.3211298
360000000,-10.44312,170.51395,-65.132568,105.00091,-71.761848,153.39493,0.0076131169,-0.24205953
361000000,-10.431448,169.49225,-71.513916,-107.1923,-67.504837,68.780121,-0.0051631769,-0.25509864
362000000,-10.426606,168.58115,-70.181488,97.046532,-88.441498,-122.14878,0.011174046,-0.21891999
363000000,-10.409889,167.59799,-72.452919,-114.77645,-69.816277,-159.966,0.00039034287,-0.25914884
364000000,-10.392319,166.44531,-79.777122,-144.12193,-72.733521,45.643307,0.00036911824,-0.12961793
365000000,-10.391291,165.54741,-73.356407,-48.349731,-76.166191,57.55431,0.0041102991,-0.20996356
366000000,-10.374886,164.7296,-74.334465,-82.142189,-63.979595,70.597771,0.0022380417,-0.24630906
367000000,-10.337268,163.70769,-67.851257,70.938599,-69.175423,-145.73912,0.0096912403,-0.21834844
368000000,-10.305312,162.75078,-66.350899,174.21152,-64.370583,-48.485958,0.0078973547,-0.25971311
369000000,-10.294289,161.57545,-74.594139,173.63179,-71.478134,-25.853754,-0.0072307899,-0.2617535
370000000,-10.279022,160.76952,-69.042473,14.59574,-73.421028,16.618732,0.0044764825,-0.26612589
371000000,-10.268015,159.85124,-64.625336,-38.706074,-80.595818,56.368546,0.0068135341,-0.28114074
372000000,-10.233829,158.90514,-67.391273,-1.5960195,-73.514236,41.925678,-0.0016453649,-0.26928878
373000000,-10.222581,158.03824,-67.954842,156.34042,-72.563766,-20.913126,-0.0094747553,-0.29229388
374000000,-10.18541,156.98976,-71.779831,-53.405777,-72.925468,-173.19075,0.0047640284,-0.26747724
375000000,-10.199622,156.04047,-71.815445,-164.98552,-75.176956,-86.257286,0.0070233936,-0.25283945
376000000,-10.166526,155.22826,-76.193138,-118.6042,-76.667198,-102.2121,-0.0074364124,-0.24646562
377000000,-10.159884,154.3725,-70.533661,26.164917,-62.997673,-144.85718,0.0055024582,-0.2625936
378000000,-10.123033,153.45428,-67.78244,109.63088,-79.334976,95.55809,0.00013305184,-0.21387777
379000000,-10.100759,152.64507,-76.900497,135.11914,-66.260811,123.98898,0.00070145307,-0.27475056
380000000,-10.075061,151.73958,-72.67968,-61.821243,-71.745964,176.41974,0.014944115,-0.31637931
381000000,-10.046486,150.76779,-67.047623,-17.620686,-74.142387,-127.47073,0.0016315449,-0.21490447
382000000,-10.014329,149.85013,-74.979362,35.010357,-81.068977,-88.846931,0.009958813,-0.16642325
383000000,-9.9896708,149.08643,-73.891235,131.15587,-72.41465,-13.174046,0.0031864289,-0.21683155
384000000,-9.9643612,148.18161,-67.620049,153.97859,-75.835052,96.290413,0.0012459718,-0.20502824
385000000,-9.9402399,147.28409,-72.247932,144.30687,-70.490463,14.496327,0.0097279157,-0.21002725
386000000,-9.915493,146.49203,-72.53685,114.66694,-79.643265,120.33489,0.004759891,-0.23612748
387000000,-9.8939829,145.68591,-71.76635,-167.59517,-69.416824,-90.383942,0.0083179921,-0.21981767
388000000,-9.8640642,144.85057,-65.309425,-80.226059,-62.827644,-122.72577,-0.0052707326,-0.25525129
389000000,-9.8370266,143.97284,-62.875412,60.612423,-69.36763,83.325645,0.0076094992,-0.23001908
390000000,-9.7772875,143.29091,-77.928871,-93.880325,-82.147827,-104.45576,6.4714441e-05,-0.27597621
391000000,-9.7518301,142.48294,-62.158409,34.026497,-75.00161,2.5213723,0.0070559573,-0.2703234
392000000,-9.7330303,141.5448,-68.553024,-83.643089,-75.977928,-149.5208,0.0080234464,-0.34380805
393000000,-9.6917467,140.77046,-73.269142,-123.97488,-72.412003,60.233402,-0.0051398519,-0.20850776
394000000,-9.6619358,140.0182,-75.437607,105.24442,-72.488411,25.185099,-0.00082558201,-0.19050731
395000000,-9.6511898,139.09702,-66.52005,104.15472,-71.29097,-76.44046,0.0065798857,-0.23565997
396000000,-9.6260281,138.27631,-67.052551,111.6299,-72.655525,-170.95628,-0.0057564522,-0.19617556
397000000,-9.5908089,137.50702,-66.06102,37.480385,-66.506119,-144.03128,0.0080136284,-0.22227108
398000000,-9.5490532,136.7617,-68.703461,-177.16144,-65.55703,-126.43583,-0.011933764,-0.23697886
399000000,-9.5060673,135.9875,-65.131477,39.282455,-84.254623,136.69472,-0.00032979975,-0.29221213
400000000,-9.488718,135.31006,-62.494865,-65.909248,-70.369286,-21.789776,0.0086931214,-0.1891762
401000000,-9.4264717,134.50371,-74.667191,79.35231,-74.863388,104.96091,-0.0045010541,-0.15814979
402000000,-9.4096994,133.84561,-75.455193,-70.533737,-69.879372,77.59761,-0.0056574377,-0.19606739
403000000,-9.3734779,132.88779,-70.511864,150.51765,-74.402115,-62.938118,-0.010663345,-0.22203213
404000000,-9.3329077,132.2128,-72.318703,11.180861,-68.425644,-104.88869,0.0001423705,-0.17408356
405000000,-9.3061504,131.47382,-73.618843,-65.109291,-68.503265,117.05795,-0.0017600848,-0.1730167
406000000,-9.2547855,130.7254,-63.530556,-12.423805,-76.51458,-129.37747,0.0022287276,-0.19433939
407000000,-9.2081966,129.9514,-67.530968,177.61676,-71.677849,60.805508,-0.0064817625,-0.1928751
408000000,-9.1438856,129.22934,-73.820496,167.94388,-76.985397,-50.150787,0.007154163,-0.20927152
409000000,-9.133173,128.57135,-78.097328,160.69321,-65.671928,-108.94137,-0.0015179595,-0.14414148
410000000,-9.0812855,127.73917,-65.665375,77.331284,-80.82975,144.55415,-0.0048086499,-0.24530359
411000000,-9.0498686,126.85912,-64.289688,-112.03027,-68.499588,156.35869,0.010060568,-0.22687986
412000000,-9.0113811,126.19038,-74.063103,55.522442,-67.785912,-38.827145,3.8828777e-05,-0.25099805
413000000,-8.9983969,125.47137,-72.867546,112.71774,-71.548317,-16.907001,-0.0021472541,-0.16926686
414000000,-8.9540195,124.74223,-69.216202,-65.483711,-66.726982,-169.05588,-0.0032185593,-0.17782183
415000000,-8.9215479,124.11205,-74.7528,-105.70294,-85.477379,141.61705,0.009395238,-0.28135487
416000000,-8.893858,123.3624,-74.322853,134.42767,-86.488953,10.722919,0.011819485,-0.25284821
417000000,-8.8525972,122.67886,-66.303558,-88.49604,-65.533981,-91.521484,0.0060055321,-0.25139135
418000000,-8.8172379,122.00761,-65.237236,-152.85658,-66.592438,-9.6556683,-0.012457871,-0.15601701
419000000,-8.7935362,121.24718,-71.111954,156.49269,-67.905518,137.16994,-0.0016844678,-0.17764015
420000000,-8.7495222,120.66734,-64.464272,129.41245,-67.533943,117.35148,0.0071712197,-0.23623085
421000000,-8.7025995,119.99324,-73.698593,61.546124,-66.179321,7.9241738,-0.0054293503,-0.28143054
422000000,-8.6534166,119.26635,-69.391907,-2.1164441,-68.437119,-118.41201,-0.003969356,-0.0728743
423000000,-8.6153784,118.61003,-66.248589,-83.102501,-63.156513,104.2378,0.0092046084,-0.18834503
424000000,-8.5953703,117.93431,-67.244087,-112.47631,-76.15876,27.167158,0.011255118,-0.21817613
425000000,-8.5501614,117.35329,-78.890923,141.44908,-63.797829,-142.70683,0.0070637101,-0.14860664
426000000,-8.5124454,116.61428,-73.486954,34.071335,-70.608994,-176.14473,-0.005926752,-0.20185579
427000000,-8.479619,115.98714,-76.961624,108.73454,-66.75425,34.267296,-0.0042678448,-0.24289741
428000000,-8.4198437,115.17709,-70.792816,164.04083,-66.914024,117.12894,0.0093838731,-0.11362211
429000000,-8.3852854,114.68698,-73.234093,62.099487,-63.955276,-123.51652,0.0032066051,-0.18626936
430000000,-8.3552189,113.95013,-68.947357,-33.95459,-99.730049,144.91347,0.0098808156,-0.16807407
431000000,-8.3250446,113.19431,-67.941628,41.172039,-72.516357,56.70039,-0.0088905692,-0.22073048
432000000,-8.2742538,112.64249,-70.859283,-93.744942,-64.532753,-178.00087,0.0096772928,-0.15725562
433000000,-8.2529011,112.07416,-70.5625,46.140877,-68.524117,36.325455,0.012098284,-0.13797231
434000000,-8.2177401,111.35915,-68.841278,134.16484,-68.451439,-75.073395,0.0067256591,-0.142621
435000000,-8.1805277,110.74985,-70.404663,-87.673119,-73.96965,-20.592369,-0.0040051113,-0.17620178
436000000,-8.1640539,110.12906,-70.834656,-66.225128,-75.453781,147.8027,0.0053819804,-0.17962581
437000000,-8.1216555,109.41627,-64.853676,78.438286,-69.901421,147.4865,-0.003856132,-0.19539039
438000000,-8.0799112,108.97948,-65.498154,-96.510628,-68.764603,-47.942841,-0.0032058659,-0.15948592
439000000,-8.0594044,108.20535,-69.796234,-175.04221,-77.43499,-57.176449,0.00074596953,-0.21959445
440000000,-8.0219145,107.64283,-68.172096,13.509099,-64.770058,-25.578342,-0.0091561936,-0.19230205
441000000,-7.9962611,107.10821,-75.746696,-171.36884,-74.334312,2.6562874,0.00019310504,-0.13838011
442000000,-7.9513807,106.50208,-74.611267,143.54288,-71.38163,-96.605438,0.010704107,-0.18291433
443000000,-7.9220519,105.99428,-73.746056,-146.3961,-62.632988,-61.713963,0.0019291115,-0.25274533
444000000,-7.87181,105.27317,-74.960678,-133.92535,-73.60498,43.188255,0.0085091777,-0.19613852
445000000,-7.8414469,104.7808,-69.327324,114.58436,-63.740852,158.87755,-0.00089471124,-0.17602897
446000000,-7.8168597,104.21513,-73.471817,87.309998,-75.787216,27.737913,0.0010560191,-0.15067802
447000000,-7.7746005,103.64659,-68.123558,113.78526,-66.669678,-167.65559,0.0018965096,-0.097446419
448000000,-7.7464232,102.99014,-73.916534,166.0255,-66.746063,-98.991661,0.010144761,-0.1438178
449000000,-7.7132707,102.40898,-85.370964,88.450249,-69.160812,134.46738,0.0025474674,-0.17769361
450000000,-7.6762037,101.97031,-66.380058,10.176567,-66.761353,70.178696,-0.0016078162,-0.07021711
451000000,-7.6493373,101.3942,-71.444916,-165.85466,-67.775406,-59.938469,0.0029086086,-0.24957429
452000000,-7.6157618,100.91272,-68.763496,-136.02676,-70.289566,175.16032,0.012332669,-0.16039787
453000000,-7.5764198,100.29809,-65.877975,-87.804451,-64.857849,142.217,0.011463731,-0.11948672
454000000,-7.5619483,99.697517,-72.606346,-40.507332,-65.949783,-44.070244,0.00058394816,-0.12245374
455000000,-7.5245481,99.266182,-84.822327,-38.177631,-66.645226,147.73761,0.014229477,-0.14250891
456000000,-7.4818144,98.666336,-71.87336,-109.67232,-65.758682,-158.0918,0.0047774743,-0.097141907
457000000,-7.4675341,98.091934,-72.228828,35.009148,-61.43718,119.37667,-0.0029849012,-0.14599268
458000000,-7.4608169,97.653137,-72.615929,54.055428,-73.285347,-133.2681,0.0015492577,-0.17147742
459000000,-7.4077559,97.01236,-69.083115,-152.34213,-66.386673,-78.260956,0.0078270724,-0.20591067
460000000,-7.4060907,96.482567,-80.627251,-90.314674,-66.931839,-45.156033,-0.0062497435,-0.16378045
461000000,-7.3647227,96.100571,-78.888634,18.197378,-68.454712,45.236141,0.0020558946,-0.096019164
462000000,-7.3497586,95.629684,-67.266922,77.075188,-64.329353,-99.957077,0.010140112,-0.16270675
463000000,-7.3172474,95.161903,-67.61055,164.62381,-71.720238,-78.198799,0.00028525401,-0.22493608
464000000,-7.2825642,94.773773,-76.510597,-104.15681,-78.998917,161.7373,0.0044423481,-0.19893546
465000000,-7.2387304,94.255798,-73.082611,-61.965313,-67.019516,-55.166893,-0.0084452191,-0.21741867
466000000,-7.2110305,93.70298,-64.694031,45.346062,-69.026031,170.52959,0.0042059855,-0.21981251
467000000,-7.19242,93.240692,-63.5816,-33.033154,-62.103695,104.44456,0.0023881004,-0.11404142
468000000,-7.1668801,92.804657,-78.444321,31.264133,-72.697319,48.117958,0.0084099686,-0.18279377
469000000,-7.11693,92.183189,-77.98159,-27.082602,-68.512711,88.67247,-0.0067936471,-0.19918442
470000000,-7.0871692,91.725349,-69.169098,-118.79709,-66.769623,107.41508,0.00064451277,-0.17633243
471000000,-7.0543036,91.186462,-79.275192,-120.4667,-69.221352,165.36967,0.0037140832,-0.17149273
472000000,-7.0406499,90.762573,-72.603622,-78.593826,-73.891968,99.193726,0.004072024,-0.15659082
473000000,-7.0155077,90.24575,-67.627838,99.729851,-73.31395,84.628487,0.0079702195,-0.13115254
474000000,-6.9984345,89.850853,-76.891685,-58.813381,-82.097015,42.095005,0.0022044072,-0.2451643
475000000,-6.9541955,89.454124,-71.078484,-71.402336,-63.580021,-117.13032,-0.0012582403,-0.11400732
476000000,-6.9342008,88.908836,-67.54274,-36.873501,-63.736404,12.368575,0.0087644225,-0.2235046
477000000,-6.9144244,88.522736,-65.129105,156.28352,-69.062599,75.933655,0.01129333,-0.20941824
478000000,-6.8914986,88.054047,-67.380074,-81.137466,-65.327362,-97.842117,0.0080560027,-0.21067342
479000000,-6.8606381,87.636673,-65.989204,141.30765,-71.629585,-150.41513,-0.0044603711,-0.17964795
480000000,-6.8260741,87.231796,-73.759087,-126.23872,-68.841599,-100.64478,0.0063431226,-0.24149516
481000000,-6.800107,86.786774,-70.76915,-73.435677,-67.827705,-147.49733,-0.0060400292,-0.092037641
482000000,-6.77142,86.293152,-65.052414,-145.77721,-69.808464,100.71483,7.7139499e-05,-0.25256363
483000000,-6.748981,85.869225,-65.621979,-137.16,-67.22567,-4.3056788,0.0020383005,-0.20196781
484000000,-6.7225952,85.404327,-69.323723,-29.337595,-65.053299,22.108454,0.0021381723,-0.16232921
485000000,-6.6998315,84.929985,-67.061172,31.210041,-74.759903,-31.723761,0.011164751,-0.18816227
486000000,-6.661799,84.601952,-79.780418,172.67967,-68.126022,114.23142,-0.001564053,-0.18368949
487000000,-6.6297445,84.086281,-70.184753,100.82186,-68.559891,-12.964302,0.001666219,-0.21759646
488000000,-6.6119618,83.467392,-71.126648,-94.923096,-76.385574,81.66938,-0.0093022417,-0.17126572
489000000,-6.6067543,83.096954,-68.830025,66.490929,-69.488342,-129.21049,-0.0064395056,-0.18511952
490000000,-6.5836935,82.679092,-64.898903,-112.63393,-70.961349,-133.03119,0.0021552485,-0.20574468
491000000,-6.5566292,82.30069,-71.113541,-154.20488,-67.745491,-149.27896,0.010501139,-0.23396578
492000000,-6.5309558,82.005295,-70.974167,97.039368,-73.540482,167.77669,-0.0057722633,-0.25034499
493000000,-6.5308805,81.60318,-72.090019,86.291786,-69.735954,-118.78426,0.0061109997,-0.16742012
494000000,-6.4933753,81.193581,-82.954521,-26.651121,-70.021996,-76.775795,0.012095703,-0.26649874
495000000,-6.4665699,80.716499,-71.537346,-21.315706,-76.726715,-144.22208,0.021688415,-0.15934969
496000000,-6.4449105,80.238419,-69.05365,-95.944458,-66.593788,19.26055,0.0056860121,-0.16566385
497000000,-6.4153152,79.927826,-66.634521,44.712463,-69.522095,-109.97766,0.0030762341,-0.29659969
498000000,-6.4099436,79.559021,-72.892166,-84.405823,-74.458313,11.651897,-0.0065118354,-0.27875793
