Freq_Hz_,S11_DB_,S11_DEG_,S12_DB_,S12_DEG_,S21_DB_,S21_DEG_,S22_DB_,S22_DEG_
300000000,-10.927661,-129.27277,-68.534058,-139.39525,-77.916237,-93.426598,-0.00038105817,-0.25963119
301000000,-10.971418,-130.06198,-71.118996,136.327,-67.517639,-83.084702,-0.013019948,-0.23520903
302000000,-11.003629,-131.00148,-68.728867,134.32903,-64.993217,76.379242,0.0030441582,-0.17376254
303000000,-11.063526,-131.94217,-77.79808,-50.721523,-65.89518,71.015244,-0.0037048263,-0.26053345
304000000,-11.081328,-132.85933,-86.049332,-26.497538,-67.788826,-68.118851,-0.00018431201,-0.15564132
305000000,-11.143432,-133.81721,-71.90773,-172.81186,-66.060768,95.3778,0.00095612241,-0.29524815
306000000,-11.165017,-134.72162,-67.073059,-121.16612,-65.906509,-59.498154,-0.00058143778,-0.21025544
307000000,-11.206251,-135.62,-70.324821,143.13084,-73.074379,-79.160294,0.007367624,-0.16851532
308000000,-11.260947,-136.7524,-83.882568,-122.11926,-80.255157,106.54037,0.000775992,-0.22992224
309000000,-11.31782,-137.5695,-71.69278,-10.11149,-76.812675,-110.01241,-0.00029769883,-0.2623848
310000000,-11.324442,-138.69179,-71.940529,157.55165,-85.806633,-86.591286,-0.0011422391,-0.21752796
311000000,-11.377867,-139.72174,-70.103073,71.592064,-62.465282,-155.38748,-0.0074089263,-0.23812652
312000000,-11.39648,-140.75002,-67.922272,-88.594627,-73.765022,-147.04314,-0.0015415241,-0.26813179
313000000,-11.463781,-141.69646,-68.820625,-101.15353,-65.899452,-64.036346,-0.0042110994,-0.19906031
314000000,-11.507187,-142.77603,-68.900917,-115.09918,-65.435715,3.8403871,-0.0063920645,-0.22566359
315000000,-11.51794,-143.80847,-66.385422,148.40012,-64.171776,125.49521,-0.0071607819,-0.18596545
316000000,-11.547669,-144.61485,-62.901257,176.91162,-71.577866,-102.77753,0.0087484056,-0.28461692
317000000,-11.565281,-145.77328,-65.807709,160.59337,-70.575455,-111.16755,0.0017288385,-0.22201946
318000000,-11.626971,-146.90758,-76.737564,38.636738,-68.019638,96.250275,-0.003251977,-0.21854253
319000000,-11.669899,-147.86058,-67.786072,-137.66318,-74.461014,93.724281,-0.011077001,-0.27044421
320000000,-11.702344,-149.05762,-67.777878,-55.983002,-67.78833,133.80865,0.0027425289,-0.22720307
321000000,-11.716428,-150.04436,-81.416214,-68.52507,-67.165054,-3.7628028,0.012028586,-0.24803261
322000000,-11.760987,-151.09352,-75.10054,-20.016144,-72.436852,60.568901,0.0094846087,-0.20683594
323000000,-11.802182,-152.19281,-75.881477,-43.362804,-72.837303,85.185272,-0.0048540011,-0.26349804
324000000,-11.808558,-153.37943,-69.1465,106.66673,-70.826492,-84.805672,0.015619945,-0.21997553
325000000,-11.871196,-154.45335,-63.313011,141.02023,-70.699059,2.3177612,-0.022877077,-0.1968725
326000000,-11.859657,-155.32928,-75.188576,-93.806656,-77.983231,66.502434,0.0060375864,-0.25022835
327000000,-11.893102,-156.50461,-69.329247,-49.475445,-68.03508,-28.111423,0.0015658188,-0.18645991
328000000,-11.904962,-157.49477,-66.686142,-62.326263,-72.040581,-113.9322,0.010255293,-0.28858241
329000000,-11.922209,-158.79816,-71.776695,-150.57582,-82.376831,-39.467693,0.0080828741,-0.14801428
330000000,-11.924689,-159.87105,-70.250168,68.226929,-70.08567,53.679478,0.0031336599,-0.25012428
331000000,-11.979764,-160.90965,-79.394218,-4.3996058,-75.067062,141.97577,0.010823403,-0.23450881
332000000,-11.959802,-162.28772,-74.642029,114.47599,-91.002853,-97.364227,0.0079883067,-0.25243989
333000000,-11.989289,-163.10355,-74.555664,-97.639,-63.895905,53.505733,0.0036028672,-0.2497073
334000000,-11.986165,-164.33464,-65.563637,58.346767,-79.688004,-10.259413,0.012602143,-0.27923304
335000000,-12.023917,-165.55147,-69.039253,116.79554,-71.383087,20.648645,-0.00073341141,-0.31113267
336000000,-12.028739,-166.79895,-73.422249,24.194639,-74.096298,-17.277925,0.010687063,-0.25079539
337000000,-12.012847,-167.7166,-69.011192,33.028614,-79.561234,-68.443993,-0.0021423334,-0.30633587
338000000,-12.03282,-169.03438,-75.284332,-36.311073,-66.503433,143.82811,0.0071939616,-0.19868478
339000000,-12.029988,-170.16623,-62.097923,141.58511,-74.589539,-54.990814,0.0016444831,-0.21564339
340000000,-11.993269,-171.20465,-74.803291,117.13362,-66.840302,99.76767,0.0073469505,-0.22965068
341000000,-12.009637,-172.46141,-68.370895,-145.22943,-74.786522,-168.06624,0.011431716,-0.21434155
342000000,-11.987641,-173.6613,-73.860901,-32.920418,-78.028923,169.24167,0.0011196827,-0.26296347
343000000,-11.981605,-174.97255,-75.210228,104.16262,-69.264992,-75.571358,-0.0057714861,-0.213608
344000000,-11.992951,-176.22192,-75.423904,-166.14188,-67.984589,-98.660194,0.010729929,-0.20362306
345000000,-11.970931,-177.4447,-66.532158,72.622925,-64.773712,-95.74147,0.0096664447,-0.23388593
346000000,-11.976466,-178.5175,-73.548012,-84.479675,-65.851059,136.51312,0.010881243,-0.26898393
347000000,-11.976229,-179.85468,-70.004501,-50.217457,-71.00853,106.99733,0.0053654341,-0.25544149
348000000,-11.94593,178.93333,-81.344246,72.764,-73.822968,14.313949,0.0015187231,-0.30760503
349000000,-11.923566,177.7715,-100.04313,-34.945919,-65.662323,81.823021,8.1798891e-05,-0.30805892
350000000,-11.919877,176.33324,-78.135155,-98.592125,-74.400696,-133.47359,-0.00033290632,-0.16041848
351000000,-11.9358,175.08441,-78.904572,156.12883,-83.33419,-8.2429914,-0.0083585931,-0.295353
352000000,-11.929488,173.87184,-97.592972,52.284309,-68.641609,118.64793,0.0019151394,-0.25603038
353000000,-11.950635,172.84337,-68.695396,24.592863,-78.560844,-145.20364,-0.002818861,-0.21590626
354000000,-11.922255,171.70154,-75.871445,-137.80229,-72.614029,130.18188,0.007582108,-0.29448557
355000000,-11.918927,170.61069,-68.718933,13.867723,-69.574989,24.32806,-0.011491475,-0.21239966
356000000,-11.881904,169.42783,-66.704018,-45.984299,-73.605553,-41.843678,0.0098508559,-0.27523226
357000000,-11.865663,168.28845,-71.12722,-100.25343,-78.570976,-27.984304,0.00037377729,-0.24743164
358000000,-11.842713,166.99805,-78.234856,-145.61073,-78.806458,4.4010696,0.0080797737,-0.26681945
359000000,-11.806681,165.67957,-74.571648,49.76363,-68.253761,-103.52489,-0.0037136353,-0.31813461
360000000,-11.818736,164.71169,-73.466339,-135.83058,-77.185524,177.48424,0.011527758,-0.26114789
361000000,-11.785266,163.64674,-69.240921,-37.971741,-71.276398,22.21361,0.0051901406,-0.26385906
362000000,-11.783193,162.43004,-74.28656,-75.497002,-65.664864,28.035475,0.007290097,-0.23305081
363000000,-11.766088,161.49786,-74.932358,81.027679,-68.125854,145.97661,-0.0079449359,-0.29220951
364000000,-11.735073,160.14796,-78.252075,-87.219345,-66.457924,-22.180635,0.010009949,-0.17676495
365000000,-11.712968,159.30249,-73.831108,-173.40068,-71.025589,65.849991,0.0014286705,-0.25795859
366000000,-11.688724,158.22388,-70.512299,63.859531,-76.025948,113.66092,0.0087535726,-0.24904986
367000000,-11.657104,157.08405,-73.727547,-42.106812,-71.983124,-48.274277,0.0096943397,-0.20148797
368000000,-11.596675,156.15323,-72.805649,17.770454,-66.14212,122.62721,0.016942926,-0.22501725
369000000,-11.55481,154.9254,-73.746956,43.608829,-63.23864,137.15315,-0.0041079745,-0.2814253
370000000,-11.538962,153.95926,-68.927742,-97.058319,-67.73188,145.94707,0.0068000946,-0.25810027
371000000,-11.505409,152.91864,-72.455635,106.83799,-65.358208,-113.42505,0.0055634715,-0.32473522
372000000,-11.458049,151.79518,-72.24585,148.79567,-72.025833,38.272335,-0.0027502193,-0.28519696
373000000,-11.449862,150.68246,-70.977669,-119.15945,-61.704815,-10.503751,-0.00053302478,-0.26788676
374000000,-11.418486,149.71001,-72.525009,70.389191,-64.200737,-131.07469,0.0017039978,-0.27244225
375000000,-11.393571,148.80038,-68.416977,-84.654503,-79.048561,-179.71062,0.0082291141,-0.24300025
376000000,-11.342456,147.77834,-70.948654,137.63988,-80.68013,83.789497,-0.0077911541,-0.21641615
377000000,-11.288474,146.71367,-70.900703,133.78369,-74.45813,132.06131,0.012626922,-0.25181702
378000000,-11.272742,145.83153,-94.2939,71.230659,-75.129822,73.224747,0.0035402749,-0.27665779
379000000,-11.223087,144.78883,-80.380226,74.71682,-68.484909,-142.77281,-0.0062290048,-0.23808564
380000000,-11.16981,143.8376,-80.127419,32.765362,-74.74324,-51.909489,0.0066610435,-0.27900863
381000000,-11.113688,142.89438,-67.553719,154.16103,-78.130211,-122.68039,-0.0021014134,-0.24433132
382000000,-11.092787,141.99286,-69.474335,-49.794403,-70.359375,-81.012428,0.0088104066,-0.18512063
383000000,-11.050443,140.9287,-81.051826,68.727219,-66.003151,67.73246,0.0057940725,-0.1594914
384000000,-11.00351,140.08434,-81.14785,156.85962,-65.856766,-173.51207,0.0025314274,-0.23203436
385000000,-10.938561,138.9987,-79.824883,-150.82961,-69.939026,-45.348572,0.0071898266,-0.20600019
386000000,-10.928549,138.25223,-81.199524,110.97193,-74.023872,179.10333,0.0059052324,-0.27930421
387000000,-10.849206,137.25957,-73.365555,76.072823,-71.638695,28.43358,0.0016941651,-0.22094481
388000000,-10.810774,136.4456,-77.517464,-82.877983,-67.99881,82.886543,-0.0017067384,-0.25281873
389000000,-10.751526,135.54541,-70.17263,-179.70728,-78.886024,48.518574,0.0065493863,-0.20443259
390000000,-10.723237,134.64505,-61.597973,-140.18864,-66.228065,-25.330332,0.0056063868,-0.27298114
391000000,-10.646522,133.73991,-66.660362,-97.755424,-65.765984,49.467648,0.0065514538,-0.30814347
392000000,-10.597806,132.88066,-60.953686,114.50742,-71.315315,-41.398937,0.0098250285,-0.31205779
393000000,-10.54267,131.94447,-73.888092,-11.051953,-92.346031,-70.178146,-0.001124891,-0.25693631
394000000,-10.479637,131.06113,-64.644638,53.516811,-66.253532,-44.431545,0.0041884002,-0.22915733
395000000,-10.459287,130.21971,-74.709381,-96.869804,-72.575996,-158.02284,0.0095507316,-0.22356796
396000000,-10.390825,129.38663,-79.275665,-83.912621,-62.816345,-131.9519,0.0041289194,-0.22620368
397000000,-10.357487,128.47914,-75.858635,-142.72125,-82.940056,179.35611,0.0089142565,-0.28015548
398000000,-10.305717,127.68677,-70.245056,146.92641,-72.644196,83.88961,-0.015849615,-0.204706
399000000,-10.23334,126.97984,-65.424675,-177.55148,-71.009468,-146.23303,-0.0011119447,-0.22847065
400000000,-10.18948,126.08599,-73.684288,106.63077,-67.986191,75.73896,0.0028998132,-0.20737089
401000000,-10.120292,125.22639,-76.738266,-33.096321,-64.874107,131.68779,0.001561161,-0.2092535
402000000,-10.065219,124.41753,-73.017365,-66.136551,-68.150269,-32.520447,-0.0023666222,-0.20908169
403000000,-10.03497,123.60889,-73.796638,-82.951317,-69.203445,106.24754,-0.0069460976,-0.21089919
404000000,-9.9653673,122.774,-81.65274,-94.67028,-66.293625,110.7729,-0.0011238552,-0.21998671
405000000,-9.9045267,121.97673,-85.636589,145.54274,-70.012405,-142.37709,-0.0073168753,-0.18887922
406000000,-9.8576832,121.14485,-66.602486,-94.839241,-68.844093,65.745987,-0.0011298106,-0.20565857
407000000,-9.7619257,120.38493,-73.232086,127.44039,-66.328079,80.030182,0.0012195755,-0.23415789
408000000,-9.7102146,119.63011,-71.96669,-22.826157,-77.341896,-23.592119,0.0060003623,-0.15262032
409000000,-9.665822,118.83677,-67.957428,103.22337,-77.115211,121.27375,-0.010807627,-0.14618149
410000000,-9.6179028,118.00834,-66.67691,76.394669,-87.782074,-96.87114,0.0025521242,-0.26397151
411000000,-9.5623779,117.25606,-76.19735,-37.177399,-65.072563,-164.47153,-5.6172914e-05,-0.2209364
412000000,-9.4908323,116.41553,-73.112907,143.53979,-76.619377,-44.905407,0.00085104723,-0.23087595
413000000,-9.4555931,115.60027,-69.28167,-91.927231,-64.405128,-139.4933,-0.0068900948,-0.17090587
414000000,-9.4040956,114.8496,-74.319786,-59.476845,-81.767159,-101.09892,0.0012935881,-0.17150638
415000000,-9.367444,114.15473,-85.22126,2.8965604,-72.217644,94.559464,0.011176111,-0.24456352
416000000,-9.3221092,113.51315,-72.846413,120.8408,-64.892776,-117.83209,0.0042933947,-0.23500861
417000000,-9.271987,112.6021,-62.760471,39.102371,-62.55949,-95.761353,0.0087582227,-0.27117795
418000000,-9.2061291,112.00274,-67.332336,147.40805,-66.798676,117.24606,-0.01415471,-0.21836036
419000000,-9.1771307,111.21585,-70.456139,-151.35228,-63.856785,-52.880444,-0.0016298275,-0.20868653
420000000,-9.1109619,110.60745,-66.547203,150.0681,-85.599129,-64.032585,0.0024527793,-0.23225711
421000000,-9.0531559,109.87769,-76.992798,-163.09224,-62.623646,130.18457,-0.0052178614,-0.23785374
422000000,-8.9983969,109.06027,-71.663956,-115.13818,-73.495804,63.489655,0.002976384,-0.11570524
423000000,-8.9503994,108.40494,-66.471458,-35.528801,-70.241989,128.03674,0.0073598712,-0.23419991
424000000,-8.9098864,107.7974,-65.378654,6.2977166,-74.152557,-24.986982,0.0067008468,-0.17949659
425000000,-8.8505716,107.14008,-80.999825,-101.56424,-64.369324,103.26148,0.0077986484,-0.18346687
426000000,-8.8052731,106.39881,-68.80806,-120.26705,-67.91787,113.90794,-0.0098265503,-0.14438626
427000000,-8.7660666,105.75112,-72.469414,-157.65752,-67.548302,2.4731982,-0.0052544046,-0.22055608
428000000,-8.6907034,105.07293,-73.33313,-88.763313,-78.649628,19.733841,0.0064356583,-0.13558134
429000000,-8.6260376,104.45011,-75.296776,32.943886,-68.729813,157.9073,-0.0045557306,-0.18950087
430000000,-8.5850344,103.70151,-68.098732,147.90051,-68.565948,-60.687954,0.01952274,-0.17008367
431000000,-8.5457659,102.90587,-92.81002,-20.683535,-66.040115,-81.096085,-0.0017476544,-0.20237014
432000000,-8.4874544,102.36185,-63.715137,-67.425804,-69.41436,-147.51041,0.0095553808,-0.17349076
433000000,-8.4578781,101.7608,-70.579742,102.02007,-75.828499,-99.719902,0.0083479621,-0.13352658
434000000,-8.3908482,100.98048,-77.282524,-124.8725,-75.61322,-127.57982,0.0019410138,-0.15017614
435000000,-8.3619938,100.42934,-81.532249,-63.528103,-70.688866,85.694298,-0.0021138447,-0.1775014
436000000,-8.3262348,99.71315,-66.431297,-138.91217,-65.013,-67.899284,0.0095233526,-0.21412766
437000000,-8.2877226,99.079285,-71.016541,-104.69238,-67.360786,-107.90993,-0.0055112531,-0.2132069
438000000,-8.2232857,98.564804,-74.623566,-168.95158,-73.578979,-90.009224,0.0033007595,-0.13235132
439000000,-8.1885977,97.873238,-78.928749,163.24608,-77.150093,-103.57137,0.0049595074,-0.22523063
440000000,-8.137949,97.306076,-69.18383,-44.252121,-73.775162,121.80923,-0.00083386706,-0.1894709
441000000,-8.0977602,96.862053,-69.334297,-132.67027,-69.799614,45.873558,0.006439277,-0.11482773
442000000,-8.0381069,96.077606,-80.753494,-122.43213,-84.413559,124.62078,0.0042582243,-0.20677012
443000000,-8.0138798,95.539665,-68.161652,121.91592,-70.285683,-10.718603,0.0092846835,-0.2069831
444000000,-7.9485164,94.930077,-76.474792,-151.66803,-70.127388,157.61391,0.00010613117,-0.1465435
445000000,-7.9004202,94.266304,-68.118416,57.187744,-73.128044,-165.26762,-0.0045767203,-0.2282133
446000000,-7.87884,93.748383,-74.10025,-105.5696,-64.587906,47.323261,0.0035113061,-0.16336523
447000000,-7.8384976,93.209633,-76.050926,-174.23425,-68.916771,103.01649,0.0044883778,-0.10108753
448000000,-7.7852569,92.597557,-67.810837,-65.637337,-70.955124,175.9778,0.012501479,-0.10973527
449000000,-7.7441096,91.970291,-67.318375,-9.7804003,-71.745079,20.607624,-0.0020076619,-0.17849475
450000000,-7.7068539,91.481117,-76.221336,54.713959,-65.812561,-67.835037,-0.01038154,-0.050083283
451000000,-7.6679406,91.041145,-65.781883,-107.48171,-68.009682,167.73537,0.0030876158,-0.22278871
452000000,-7.6150517,90.353142,-70.868217,54.802441,-69.045784,102.85994,0.0075510987,-0.16975868
453000000,-7.5772228,89.770348,-71.575577,-60.406357,-76.591019,-37.199326,0.0096292514,-0.079521082
454000000,-7.5466299,89.291512,-72.865135,-130.02296,-67.148216,-37.33115,-0.0057473797,-0.10148183
455000000,-7.4948559,88.80188,-76.375366,-84.095642,-66.992706,42.386147,0.022504834,-0.1396533
456000000,-7.450583,88.192429,-69.672264,-101.3735,-63.940762,-79.078003,0.011033586,-0.10181975
457000000,-7.414886,87.611969,-71.84095,-63.861038,-62.905693,10.096453,0.00078427402,-0.17816675
458000000,-7.4004107,87.237648,-79.883499,-14.177983,-69.620979,-177.02521,-0.0022917716,-0.17342526
459000000,-7.3593292,86.532204,-66.76133,168.24739,-64.436142,-70.053436,0.00034789348,-0.1483357
460000000,-7.3345413,86.023956,-67.360977,-98.529716,-69.607513,148.50996,-0.0060065901,-0.15209496
461000000,-7.2678885,85.683098,-73.649574,-27.917458,-77.254105,-34.893661,0.0051720417,-0.15502357
462000000,-7.2390776,85.117317,-79.041367,-162.39633,-65.46447,-65.233017,0.0060029472,-0.17807938
463000000,-7.1991911,84.6231,-74.21331,-3.2927902,-76.042267,-102.1208,-0.0073887012,-0.24382895
464000000,-7.1664739,84.224113,-71.020561,167.65697,-70.73452,93.974052,0.012043558,-0.16904339
465000000,-7.131072,83.588615,-65.982918,-109.88953,-67.710083,103.3289,-0.0025924768,-0.19776095
466000000,-7.1014681,83.151909,-71.980438,-171.25439,-84.115829,109.96191,-0.0011093554,-0.20992242
467000000,-7.0552211,82.626549,-68.844604,143.63524,-74.235458,70.106926,0.0023006531,-0.1396593
468000000,-7.0273948,82.2099,-80.497223,126.08923,-69.172462,-22.65209,0.0095941247,-0.1897348
469000000,-6.9587488,81.582802,-73.233955,-146.85416,-67.789207,167.79445,-0.0011443106,-0.20471622
470000000,-6.9323874,81.146942,-74.679649,-36.533997,-80.255463,-87.527222,0.0020357131,-0.20800951
471000000,-6.8957086,80.602539,-75.239838,-161.07625,-89.635048,-148.17635,0.00057877169,-0.2626076
472000000,-6.8662963,80.150177,-69.922928,34.793446,-69.05722,167.64168,-0.0014071303,-0.19533445
473000000,-6.8420987,79.629967,-71.415771,104.73095,-70.46946,158.40022,0.0050551752,-0.11299868
474000000,-6.7988496,79.206703,-66.257172,-58.668697,-69.386444,-6.8469543,-0.0050763567,-0.1935128
475000000,-6.7637248,78.731155,-77.838715,168.91585,-68.487495,105.01652,0.0014152142,-0.067427754
476000000,-6.7270432,78.090706,-76.238693,93.018616,-66.292664,-67.852104,0.008166071,-0.23836865
477000000,-6.7060719,77.714539,-64.404984,-119.83804,-65.64888,9.5016241,0.014442075,-0.17381255
478000000,-6.6902504,77.333687,-86.629776,-64.088318,-68.102669,-2.7767634,0.017280698,-0.22686093
479000000,-6.6478114,76.816307,-73.14682,70.358955,-72.392197,-54.921261,-0.0048187566,-0.17595987
480000000,-6.5876045,76.447968,-77.794754,169.10933,-64.472031,-88.676773,0.012070404,-0.26587883
481000000,-6.5800767,75.913116,-65.060036,70.49675,-68.340576,87.193077,0.0029432725,-0.054527421
482000000,-6.5340934,75.401199,-81.163338,-74.332024,-65.260689,-25.943707,0.0039753001,-0.22688784
483000000,-6.5202842,74.983482,-73.216652,-107.52905,-65.362595,-121.39362,-0.0038823003,-0.22115844
484000000,-6.4620218,74.554695,-65.058189,91.608208,-63.424877,159.15266,0.0072223889,-0.17905673
485000000,-6.455646,73.838326,-67.632088,-162.31161,-70.560104,-137.38023,0.004780577,-0.23498519
486000000,-6.423471,73.596863,-72.006363,-46.828445,-66.418579,-138.54362,-0.0032975709,-0.19372514
487000000,-6.3760753,73.109825,-71.411049,44.866215,-74.668457,-23.172108,0.0033038633,-0.20259011
488000000,-6.3682666,72.451019,-70.145477,-66.596657,-68.889008,115.3615,-0.017729718,-0.20414674
489000000,-6.3540468,72.05587,-69.860878,169.66125,-79.503265,-64.612198,-0.011914295,-0.21473633
490000000,-6.326201,71.755524,-67.625191,27.846544,-67.1912,-85.980835,0.0087241223,-0.16778938
491000000,-6.2893977,71.306923,-66.598488,-107.32236,-66.373398,152.58374,0.014071055,-0.11290105
492000000,-6.263072,70.97731,-66.617561,20.939409,-69.844261,46.162514,0.0018742573,-0.25081441
493000000,-6.2558498,70.490547,-68.469658,-58.629128,-67.416962,38.432861,-0.00072460872,-0.19446525
494000000,-6.2359838,70.018425,-66.335602,15.678382,-71.231712,137.8723,0.0052377135,-0.26673827
495000000,-6.1917014,69.517204,-67.883339,-44.588215,-69.340538,49.887962,0.015177829,-0.18331958
496000000,-6.1725383,69.206848,-80.375595,26.024652,-72.307144,139.68294,0.0039359895,-0.18715833
497000000,-6.1359129,68.790878,-70.245308,-127.8739,-79.160217,-58.449474,0.0047205873,-0.33355725
498000000,-6.1274796,68.45034,-78.743378,-89.209587,-76.01062,176.9099,0.0035123406,-0.24553128
