Freq_Hz_,S11_DB_,S11_DEG_,S12_DB_,S12_DEG_,S21_DB_,S21_DEG_,S22_DB_,S22_DEG_
300000000,-3.6482923,-66.717575,-62.072742,116.6116,-78.269241,-159.61058,0.0033923252,-0.20129967
301000000,-3.6795802,-67.169502,-72.473495,98.31691,-75.114189,54.339695,-0.013299846,-0.23375781
302000000,-3.6914289,-67.562042,-75.219254,-144.51611,-76.632584,-28.50638,0.0041713319,-0.1668721
303000000,-3.7127614,-67.976547,-79.907036,-141.0827,-73.341461,120.04664,0.0003137266,-0.24201122
304000000,-3.746356,-68.283104,-84.364967,-110.2345,-68.828156,19.606569,0.0011781695,-0.11256511
305000000,-3.7723663,-68.663063,-70.036186,142.02119,-81.241196,30.637747,0.001727286,-0.29030508
306000000,-3.7740722,-69.053101,-69.677452,-108.84174,-94.735924,72.772705,-0.00079632539,-0.22122334
307000000,-3.7909586,-69.528557,-70.080948,30.300539,-78.159019,107.2877,0.003102619,-0.19573896
308000000,-3.8310771,-69.949577,-74.536575,-75.334579,-72.961571,-75.683311,0.010722699,-0.24229565
309000000,-3.8503993,-70.387711,-75.450188,131.14787,-68.629288,101.20921,-0.0017163199,-0.24464841
310000000,-3.8813322,-70.921417,-62.242733,119.63101,-73.433617,13.188345,0.0018359624,-0.24126029
311000000,-3.9234135,-71.264824,-68.193977,47.66127,-68.323982,1.456906,-0.0042178361,-0.21970461
312000000,-3.9385672,-71.548386,-72.695564,-128.58127,-74.736183,167.93694,-0.0069562094,-0.21211791
313000000,-3.9556301,-71.921852,-72.318054,-39.658516,-65.549858,-152.38994,0.0004182971,-0.19357568
314000000,-3.9679942,-72.35688,-62.83144,144.16089,-71.084343,174.57805,-0.0095463572,-0.26305068
315000000,-3.9985583,-72.817741,-69.369011,59.455296,-68.407814,161.7515,-0.0087875929,-0.18021779
316000000,-4.0175786,-73.287025,-64.71743,16.340904,-73.331352,-108.82365,0.0054895314,-0.24773051
317000000,-4.0401211,-73.748734,-66.961929,164.04471,-65.596184,-40.587875,-0.0038592413,-0.19552627
318000000,-4.0769114,-74.249779,-78.284592,129.04059,-64.677109,-28.58363,0.0010948385,-0.15926526
319000000,-4.1174049,-74.712723,-70.017677,28.212568,-75.004829,-98.688004,-0.0030291968,-0.18673623
320000000,-4.147119,-75.23687,-69.976936,27.063984,-66.881302,141.0529,0.0051068864,-0.2731761
321000000,-4.1746635,-75.650398,-69.531937,147.7373,-68.499512,-18.392443,-0.0020762919,-0.27261081
322000000,-4.2121749,-76.05233,-69.840965,-139.92888,-68.122421,-122.03476,0.0060887691,-0.2463398
323000000,-4.2616816,-76.496651,-66.150879,4.197084,-62.823277,-110.99786,-0.01362858,-0.29444623
324000000,-4.2968507,-76.912964,-68.503548,113.72532,-69.308342,57.189926,0.017160032,-0.18294203
325000000,-4.3385415,-77.349449,-70.102097,-28.704739,-74.079811,-141.16006,-0.010702528,-0.20373289
326000000,-4.345469,-77.770546,-72.685501,-7.2484102,-70.872208,35.403397,0.0059041982,-0.28782776
327000000,-4.3731279,-78.239571,-64.461525,-124.64942,-76.739372,57.336224,-0.00078622805,-0.26813748
328000000,-4.4034534,-78.722885,-72.212349,142.17603,-64.562096,59.385578,0.013028519,-0.27392784
329000000,-4.4551625,-79.249794,-72.610504,105.62706,-71.72641,-54.063675,0.0091121318,-0.20741709
330000000,-4.4984927,-79.83297,-64.730965,30.452713,-74.585716,-68.785576,0.0099996189,-0.25478247
331000000,-4.5413718,-80.207687,-71.123199,-26.240316,-68.695908,-155.32364,0.011705378,-0.22070821
332000000,-4.5965905,-80.768066,-63.687664,-66.600365,-67.59317,41.756969,-0.0020687815,-0.23106803
333000000,-4.6181293,-81.156082,-72.483444,31.041523,-64.076874,39.408184,-0.0014542583,-0.29341951
334000000,-4.6466708,-81.662476,-75.039032,-14.516396,-78.393707,114.89261,0.0047112787,-0.33038068
335000000,-4.7096,-82.166504,-74.151993,98.765282,-70.48555,136.72704,-0.0012023108,-0.31903273
336000000,-4.7607665,-82.662399,-69.163185,-114.30588,-67.086769,-157.13062,0.011188505,-0.24792613
337000000,-4.7955222,-83.165634,-65.742813,41.360413,-72.108444,10.522082,0.0036256281,-0.34054965
338000000,-4.8386426,-83.656425,-71.499962,78.892334,-66.483406,93.185364,0.0023922399,-0.20466191
339000000,-4.8787737,-84.200188,-71.235016,116.91286,-65.986099,-132.47505,-0.00323203,-0.21362071
340000000,-4.9445901,-84.86145,-66.064026,-13.926369,-63.945675,-51.730892,0.0068600555,-0.27375218
341000000,-5.0175748,-85.432007,-82.357735,-70.711143,-70.278435,114.60678,0.012170047,-0.27094695
342000000,-5.0850878,-85.894005,-70.91272,-103.70099,-74.619804,-31.767071,-0.0037138942,-0.33110532
343000000,-5.1682425,-86.264259,-77.524216,-154.19272,-66.714973,155.16803,-0.0011166054,-0.19557214
344000000,-5.2333646,-86.625435,-75.125626,128.70203,-80.938637,-159.46136,0.0064790822,-0.25260106
345000000,-5.2793326,-87.093987,-67.873795,41.61483,-68.233551,61.989021,0.0018100874,-0.24943
346000000,-5.3495917,-87.607704,-72.065971,95.670082,-67.325745,108.16158,0.0080348151,-0.32886201
347000000,-5.4354377,-88.066132,-67.805695,143.80809,-76.166443,169.41518,0.007262704,-0.22499518
348000000,-5.5092111,-88.336044,-76.554733,-176.22954,-75.012695,-106.34834,0.0027875418,-0.26285496
349000000,-5.6163664,-88.62545,-71.686707,-108.45702,-75.0252,129.0498,0.0087143052,-0.28131893
350000000,-5.6992354,-88.986717,-80.202568,-137.02481,-72.724991,-13.492032,-0.00056357408,-0.20411339
351000000,-5.7623358,-88.844849,-85.669106,-39.745628,-67.258675,35.953079,-0.0028893172,-0.3122741
352000000,-5.7997041,-88.931145,-72.768898,-25.134773,-70.453423,-152.05757,-0.0033568952,-0.21308228
353000000,-5.817831,-89.101593,-68.117706,-164.20546,-70.609268,156.22076,-0.0037986145,-0.21613561
354000000,-5.8446269,-89.444862,-68.485184,170.9333,-66.658089,-46.401581,0.0048421174,-0.25532123
355000000,-5.8928566,-89.880203,-65.414452,106.65302,-71.422585,-149.519,-0.012866765,-0.23983409
356000000,-5.9589863,-90.215355,-69.698105,-160.21796,-70.826134,85.692711,0.0091446796,-0.25078538
357000000,-5.9958897,-90.446312,-67.798172,-81.671539,-66.570282,-6.486577,0.012946447,-0.23408405
358000000,-6.0366516,-90.608078,-64.354073,79.344345,-66.824806,166.25029,0.0087799234,-0.23210461
359000000,-6.038692,-90.765137,-68.448418,-106.59586,-60.396473,-152.71042,5.2807056e-05,-0.29066032
360000000,-6.0678287,-91.138962,-75.085129,157.06473,-69.978279,53.035282,0.0011890386,-0.2672348
361000000,-6.069304,-91.498932,-68.644791,-164.46619,-70.93605,-55.256168,-0.00065833004,-0.23697838
362000000,-6.093349,-91.95443,-87.078522,22.032557,-62.981316,18.094069,0.0095527982,-0.24343741
363000000,-6.1219878,-92.39817,-71.192406,-165.04488,-77.005974,-32.50943,-0.0073651047,-0.30431548
364000000,-6.1851087,-92.83857,-69.990532,-76.474922,-66.397881,-117.79716,0.0014887057,-0.17002916
365000000,-6.1771526,-93.173279,-72.618492,-47.565121,-66.148354,-6.9262562,0.0067975102,-0.24734172
366000000,-6.1831059,-93.735687,-68.770401,-50.089401,-68.16626,54.240841,-0.00061742426,-0.29376301
367000000,-6.2311382,-94.226822,-70.411209,-126.21792,-69.418442,-106.51441,0.0029142997,-0.24207529
368000000,-6.2529817,-94.921143,-69.427162,-150.32501,-66.217697,-117.62148,0.010714435,-0.21847451
369000000,-6.2795367,-95.441414,-67.582916,-128.01659,-74.283432,174.29562,0.00038361311,-0.31364706
370000000,-6.340467,-95.912048,-65.637489,149.06985,-78.363937,50.82914,0.0038604701,-0.29965883
371000000,-6.3608031,-96.534187,-62.792309,-78.462196,-75.721588,165.42982,0.0024879642,-0.28663975
372000000,-6.4027243,-96.999626,-66.751625,16.03334,-84.356606,37.326015,0.0044863089,-0.25142103
373000000,-6.4548059,-97.476006,-72.653671,-173.02173,-86.092278,-164.53781,0.003707876,-0.25757855
374000000,-6.4658403,-98.066299,-74.265564,-154.33775,-70.147774,-151.80559,0.0033731845,-0.33261132
375000000,-6.5212612,-98.709,-68.616486,68.410027,-68.383644,150.84547,0.011230332,-0.20196395
376000000,-6.5620189,-99.218285,-79.970238,150.63283,-67.055603,4.2469616,0.0028780836,-0.20886162
377000000,-6.607583,-99.81794,-81.080772,120.98889,-80.600365,15.855705,0.0021925056,-0.24676274
378000000,-6.667623,-100.33427,-68.356926,-31.600554,-70.5327,-99.218407,-0.00126316,-0.30347842
379000000,-6.7110386,-100.94761,-80.798309,19.768955,-73.054672,72.98468,-0.0027165464,-0.24366195
380000000,-6.7458291,-101.4929,-65.273079,111.39103,-71.045891,-115.24609,0.003020877,-0.28094009
381000000,-6.7884846,-102.20836,-73.166344,65.198387,-67.446693,-158.80498,-0.0025222844,-0.21578445
382000000,-6.847178,-102.72098,-68.936409,-113.52047,-77.632393,-68.96553,0.0063022822,-0.17492251
383000000,-6.8978262,-103.45005,-73.635361,-103.35386,-69.336685,164.72409,0.010706688,-0.22808579
384000000,-6.9705782,-103.99367,-66.239067,74.867813,-63.849255,-112.22282,-0.0038504321,-0.22623561
385000000,-7.0165224,-104.54649,-70.349709,109.14249,-71.776939,-25.883097,0.0073174899,-0.21991229
386000000,-7.0493584,-105.255,-77.376007,-131.58492,-66.999229,143.04477,-0.0068478337,-0.26049274
387000000,-7.1046515,-105.75831,-70.415207,86.889793,-67.67942,24.654797,-0.0027463341,-0.25560245
388000000,-7.1771169,-106.57907,-69.293808,-77.014275,-67.659172,-153.19696,-0.0090879695,-0.25510198
389000000,-7.2260728,-107.20083,-66.530243,-54.75848,-69.917732,-139.54921,0.012690932,-0.17308885
390000000,-7.2793741,-107.83089,-70.359177,-161.03909,-62.804054,-13.197707,0.0019467062,-0.29126403
391000000,-7.3491859,-108.46739,-73.372643,64.780762,-64.82811,138.09438,0.0044511403,-0.29620796
392000000,-7.4113116,-109.00151,-71.118683,9.2369509,-68.428452,179.46609,0.015845886,-0.32223025
393000000,-7.4870691,-109.7048,-82.03228,144.07652,-71.742668,71.648941,-0.00039581448,-0.28212985
394000000,-7.5374451,-110.3273,-69.507324,43.036232,-64.848381,177.21637,-0.0024425101,-0.17156991
395000000,-7.6073914,-110.91384,-70.094536,-46.741764,-67.009888,33.509846,0.0048281546,-0.24889112
396000000,-7.6671247,-111.58479,-69.917358,-153.12376,-77.330681,60.108116,-0.0029535578,-0.20364943
397000000,-7.7272897,-112.2236,-75.902061,-2.7175643,-74.18586,76.904434,0.0077821114,-0.24246769
398000000,-7.7856245,-112.88611,-64.142601,31.174028,-69.086647,-58.223244,-0.015753746,-0.19276763
399000000,-7.8386221,-113.47705,-72.554077,-85.073227,-71.192146,6.041172,0.0048250519,-0.27620301
400000000,-7.8904877,-114.18783,-74.483391,-134.16881,-71.234726,-139.10501,0.0061420193,-0.24410635
401000000,-7.9671521,-114.8242,-74.620415,51.060986,-75.45388,-156.7477,0.011455985,-0.21866901
402000000,-8.0228119,-115.75672,-72.787361,-147.6982,-67.683121,19.724483,-0.0053383778,-0.23557691
403000000,-8.0983477,-116.46586,-67.284889,-146.72562,-77.223373,-36.372253,-0.0038662367,-0.2264709
404000000,-8.1781197,-117.19486,-76.8246,119.35184,-65.582092,-57.696274,0.003587866,-0.20124564
405000000,-8.2708721,-117.80227,-68.848198,-75.849373,-69.752396,66.793358,-0.003751202,-0.16322684
406000000,-8.344121,-118.34269,-70.637642,-24.805607,-71.05764,-23.959715,-0.0029939674,-0.23730861
407000000,-8.4189339,-119.07865,-72.636322,-164.95924,-67.951469,155.98077,-5.4360567e-06,-0.17874987
408000000,-8.490634,-119.77401,-67.505341,83.995758,-72.211845,-91.55471,-0.0030662396,-0.17735922
409000000,-8.5578842,-120.44226,-71.361931,104.46016,-70.118996,-5.6886535,-0.0081884572,-0.1569137
410000000,-8.6214676,-121.09382,-64.129585,154.49382,-68.462212,92.984039,0.0018338924,-0.25258219
411000000,-8.6553526,-121.75272,-81.27771,149.21661,-71.164299,1.34326,0.0085267453,-0.25462738
412000000,-8.7486315,-122.63157,-83.975815,-61.020714,-76.202232,-122.39961,0.00047679336,-0.2227063
413000000,-8.8184023,-123.44357,-74.402771,-119.42484,-72.151421,-148.91425,-0.0032864313,-0.17171641
414000000,-8.9010983,-124.1048,-65.508743,122.83841,-77.462601,96.200066,0.0030607136,-0.1522239
415000000,-8.966404,-124.95006,-70.922302,-110.18554,-71.161919,89.309052,0.01382025,-0.29313698
416000000,-9.0489798,-125.6433,-69.77298,158.51363,-62.285561,152.83691,0.0056798076,-0.28176531
417000000,-9.1121979,-126.5557,-72.777336,-36.197773,-65.728439,-140.94362,0.0071360725,-0.25686443
418000000,-9.1765518,-126.99695,-73.561234,-2.5962844,-70.847458,-60.912434,-0.0020257905,-0.1925644
419000000,-9.2512083,-128.14775,-65.333282,-1.9149208,-73.574013,12.471588,0.0043001184,-0.22010538
420000000,-9.3045864,-128.93015,-75.494049,-90.019035,-71.760223,158.06183,0.014132979,-0.2062948
421000000,-9.3765736,-129.76753,-66.84446,-128.71704,-74.291267,-122.8914,-0.0020283803,-0.2090932
422000000,-9.4802923,-130.59631,-68.043747,118.35825,-70.582489,-61.633591,0.0015508103,-0.084935762
423000000,-9.5554018,-131.45454,-77.179794,-160.44157,-84.379906,-105.35611,0.0062056081,-0.20851371
424000000,-9.6164427,-132.26347,-75.056496,18.162741,-81.432831,-131.10426,0.0068662586,-0.19571067
425000000,-9.6938086,-133.3044,-67.589012,144.89778,-73.003105,-171.3904,0.0023430835,-0.16734767
426000000,-9.7757339,-134.13657,-67.680809,66.961205,-65.445122,-63.414169,-0.010536972,-0.17103748
427000000,-9.8480282,-135.12918,-65.409073,-10.051446,-76.72287,-179.62903,0.00084897678,-0.23054309
428000000,-9.957077,-136.08258,-76.943565,60.718006,-75.186226,34.610542,0.0061239246,-0.085129522
429000000,-10.042964,-136.93088,-73.66288,-49.761612,-66.788414,-153.8757,-0.0016280148,-0.19053687
430000000,-10.149559,-137.83221,-81.444138,-71.790565,-74.277054,151.20934,0.010844061,-0.17372085
431000000,-10.251101,-138.79491,-67.759605,-153.52711,-66.789848,43.09449,-0.012873775,-0.23589081
432000000,-10.320933,-139.5408,-67.216545,-68.186157,-73.873947,56.995052,0.011482836,-0.22674125
433000000,-10.394229,-140.49382,-74.813469,115.87972,-62.62891,134.4019,0.010389064,-0.10993358
434000000,-10.492366,-141.43665,-69.610786,-12.192246,-73.378769,14.990849,0.0066010798,-0.20257753
435000000,-10.554843,-142.4213,-76.291832,-4.1589751,-63.444126,-6.1667719,-0.0030001844,-0.19612528
436000000,-10.653997,-143.28166,-66.602676,62.155125,-68.584946,-11.936632,0.0098203793,-0.21018375
437000000,-10.74016,-144.23125,-77.204407,94.10952,-72.04155,-97.765579,0.0035563109,-0.22626893
438000000,-10.820067,-145.23529,-69.003166,31.213959,-86.27784,-21.751925,0.0014447144,-0.12950969
439000000,-10.874784,-146.34076,-71.551704,-68.780151,-63.657818,33.621841,-0.0041310349,-0.15908608
440000000,-10.963484,-147.24251,-73.156326,20.819445,-69.157997,-175.52583,-0.0046417629,-0.23456711
441000000,-11.036264,-148.38942,-66.959152,123.28183,-81.234604,-9.642539,-0.005276694,-0.17457666
442000000,-11.130022,-149.511,-74.775291,-90.594063,-68.864716,-38.337536,0.0037125314,-0.20626423
443000000,-11.199886,-150.59052,-67.989227,52.157154,-70.253654,-66.857452,-0.00060266716,-0.22224984
444000000,-11.27279,-151.57872,-73.32711,95.814453,-68.97657,74.515007,-0.0020659326,-0.20188905
445000000,-11.379756,-152.64474,-66.170959,-111.74174,-66.659233,57.202919,0.0053892196,-0.17777881
446000000,-11.429377,-153.64963,-66.231491,81.396828,-80.043007,-168.24121,0.001933769,-0.15096837
447000000,-11.527901,-154.80974,-62.81123,-35.212486,-70.534073,137.31537,0.0096938228,-0.13596201
448000000,-11.611211,-155.84113,-68.62809,-106.0635,-72.118034,-107.48035,0.0058995453,-0.16913529
449000000,-11.662904,-156.96715,-75.342285,56.687988,-70.669266,-130.25545,-0.00521527,-0.17657658
450000000,-11.73052,-158.25499,-70.705734,-119.53531,-76.425034,-87.647995,-0.0014097197,-0.15285389
451000000,-11.822097,-159.24794,-70.589149,145.53941,-69.532936,-14.138462,0.0044744136,-0.16947237
452000000,-11.884394,-160.47035,-73.880219,-104.2317,-75.952698,-48.115005,0.0085758325,-0.14397663
453000000,-11.950306,-161.82062,-75.565231,-17.999447,-64.345573,-43.788048,0.011380597,-0.10659738
454000000,-11.997882,-163.00816,-64.013519,-139.77673,-74.114105,20.64852,-0.0043357336,-0.13043986
455000000,-12.100504,-164.32625,-72.405472,115.71239,-62.657368,-148.68898,0.024191789,-0.14372481
456000000,-12.185308,-165.42871,-67.631119,-41.937946,-72.130348,-160.63002,0.0077898633,-0.070774123
457000000,-12.240585,-166.66083,-71.531509,-123.19119,-70.568558,24.734108,-0.0041828565,-0.17771004
458000000,-12.281126,-167.93857,-70.27034,152.90779,-65.957977,-85.983459,-0.0036931678,-0.20390166
459000000,-12.344504,-169.48048,-71.533592,-54.600716,-75.285263,-97.306953,0.00688435,-0.14364466
460000000,-12.418029,-170.52542,-66.263931,-4.4175572,-71.212616,-135.33591,-0.0076337466,-0.15241913
461000000,-12.467751,-172.12869,-71.100479,79.743317,-68.638344,178.64951,0.0056627449,-0.11438195
462000000,-12.527983,-173.15973,-69.074364,65.389954,-58.733215,-117.65891,0.010679317,-0.14297093
463000000,-12.597067,-174.79152,-75.335068,-40.362179,-63.925629,-172.78178,0.0015270036,-0.19166276
464000000,-12.668639,-176.20084,-73.610466,35.587273,-73.029205,39.814735,0.01492554,-0.16563432
465000000,-12.728855,-177.48436,-75.046616,110.12859,-62.871059,-42.291313,0.0041909865,-0.19651426
466000000,-12.784696,-178.81982,-68.437874,-116.78732,-65.185623,-10.95713,0.0019311815,-0.26883379
467000000,-12.816319,179.85542,-87.015503,-160.50983,-68.472649,32.546188,0.0094133187,-0.1559692
468000000,-12.876312,178.62112,-67.395874,-73.403702,-70.847252,-64.952118,0.012253681,-0.23271815
469000000,-12.946898,176.9529,-64.82737,69.809685,-71.741348,31.621754,0.00084587105,-0.19779195
470000000,-12.962082,175.34023,-76.021301,-60.573063,-65.30938,133.85645,0.0048607346,-0.1784313
471000000,-13.046872,173.9408,-71.504105,144.17232,-64.672913,-126.648,0.003083477,-0.16948926
472000000,-13.042851,172.5459,-71.660072,174.60489,-62.182514,111.00703,0.0011051903,-0.23142239
473000000,-13.118648,171.07616,-68.240677,81.020035,-75.238991,45.861488,-0.0078090476,-0.1357808
474000000,-13.157979,169.68889,-69.010262,-179.38138,-77.45182,-12.06006,-0.0078251259,-0.16461216
475000000,-13.18131,168.26379,-68.653603,-97.730347,-67.243713,90.553001,-0.00049885124,-0.17181969
476000000,-13.210977,166.78218,-65.117966,-127.89536,-68.612656,108.14215,0.0033974983,-0.22543243
477000000,-13.244875,165.34349,-78.353882,-32.821369,-66.814209,127.9803,0.015287202,-0.17875931
478000000,-13.254186,163.7439,-67.998177,34.753021,-76.683914,-17.537827,0.013354209,-0.22826777
479000000,-13.30038,162.3427,-66.303467,-140.82664,-64.758026,-59.238205,-0.006800388,-0.21310012
480000000,-13.316628,160.8369,-71.006172,108.26894,-69.801743,176.37239,0.010646781,-0.23687309
481000000,-13.34364,159.38742,-67.650253,38.376625,-72.103195,119.68809,0.0063886154,-0.06216364
482000000,-13.357792,157.85287,-82.972542,-11.284162,-75.366455,80.603233,-0.0019822821,-0.22883001
483000000,-13.38226,156.28989,-69.924431,159.34195,-91.051636,60.914436,0.0054486832,-0.21147387
484000000,-13.430134,154.81079,-70.169006,51.991951,-68.536789,30.760235,0.00015065372,-0.14131773
485000000,-13.442456,153.51428,-68.489288,15.833787,-70.359161,137.02632,0.0067029144,-0.17188759
486000000,-13.466697,152.11484,-80.152603,-157.04396,-71.875595,-163.35617,-4.1417748e-05,-0.18893281
487000000,-13.464522,150.65891,-64.857117,-86.242012,-65.263435,86.566772,0.00048921723,-0.19457233
488000000,-13.456105,149.41122,-70.539322,-97.066185,-74.945518,-19.317442,-0.015173132,-0.21682209
489000000,-13.43887,148.07585,-77.288025,81.959488,-69.116943,155.18744,-0.0053318981,-0.19029264
490000000,-13.424438,146.46437,-76.669754,130.76103,-70.556038,-139.24792,0.0075211232,-0.12484343
491000000,-13.39205,145.07831,-71.110023,-66.24691,-62.076035,-28.796757,0.007408971,-0.13245595
492000000,-13.396732,143.71951,-81.210922,-155.92226,-65.081535,-23.704567,0.00069058273,-0.24723396
493000000,-13.37134,142.39368,-75.931458,24.205246,-83.739731,-88.939857,0.00044573349,-0.1291592
494000000,-13.386295,140.96176,-66.850883,-53.570026,-78.935654,-91.150238,0.0045075133,-0.25544709
495000000,-13.360794,139.60048,-74.449142,166.04715,-64.832909,18.14817,0.0082627013,-0.23844276
496000000,-13.332116,138.24547,-75.855881,-75.683487,-67.968498,56.375992,0.0060727424,-0.17467119
497000000,-13.272064,136.89284,-76.090378,-148.74113,-79.082817,8.3711386,-0.0051237834,-0.30798388
