Freq_Hz_,S11_DB_,S11_DEG_,S12_DB_,S12_DEG_,S21_DB_,S21_DEG_,S22_DB_,S22_DEG_
300000000,-12.296482,-159.1483,-80.565208,-140.1134,-73.549805,106.5359,-0.013008784,-0.22797832
301000000,-12.30454,-160.04822,-74.030624,91.469101,-69.260994,112.79673,-0.00051231351,-0.19212273
302000000,-12.299039,-161.34489,-70.834183,44.636635,-77.690765,25.309561,0.0039189202,-0.13562405
303000000,-12.29823,-162.23665,-67.907463,-123.17027,-71.623505,128.95139,-0.0073461761,-0.24294932
304000000,-12.318592,-163.2859,-77.218712,-21.181589,-69.530449,-169.53998,-0.003778406,-0.11482622
305000000,-12.325433,-164.40295,-68.869904,60.685841,-70.923851,-32.042942,0.0078508444,-0.23000075
306000000,-12.309465,-165.36139,-67.062477,-144.71213,-70.671875,33.798275,-0.0061320537,-0.20332499
307000000,-12.318338,-166.55119,-68.264214,169.58875,-62.494209,-30.647274,-0.001023134,-0.21942881
308000000,-12.34553,-167.51979,-68.673531,-162.18668,-67.95723,72.837585,0.0041739182,-0.20923282
309000000,-12.342167,-168.70053,-69.847366,-174.47314,-68.812782,-150.45329,0.00012114464,-0.22567031
310000000,-12.305843,-169.75264,-65.086884,-88.647324,-71.811295,133.41995,0.014637119,-0.19747645
311000000,-12.314494,-170.78156,-77.457642,101.57782,-71.436264,-133.8063,-0.00068913912,-0.22218888
312000000,-12.301612,-171.8288,-75.419907,-166.00325,-78.690071,-94.670151,0.0031926369,-0.19534199
313000000,-12.28257,-172.89929,-73.470337,153.41701,-63.690536,9.7039719,0.003884264,-0.22054262
314000000,-12.282409,-174.18703,-80.376114,149.65948,-66.387672,97.878906,0.00092299556,-0.2043892
315000000,-12.237286,-175.07254,-64.515366,-89.526154,-73.172852,57.076717,-0.011350025,-0.23846886
316000000,-12.252703,-176.01483,-73.869751,43.704113,-68.053078,63.041412,0.00096078083,-0.26114479
317000000,-12.244325,-177.19574,-77.467712,-106.953,-64.814407,30.529194,-0.0064467643,-0.27217257
318000000,-12.228991,-178.32051,-73.584549,27.585691,-72.758842,-156.85281,-0.0072608679,-0.1844714
319000000,-12.205363,-179.25685,-69.629372,113.1189,-67.568039,-137.33522,-0.010771296,-0.24386922
320000000,-12.19562,179.5134,-70.794388,131.67551,-74.082565,-111.81142,0.00059430115,-0.18930049
321000000,-12.141409,178.43663,-66.904724,-48.194149,-77.225372,51.07262,0.00061293645,-0.23249327
322000000,-12.16188,177.52158,-71.061462,169.17253,-65.57457,144.61497,0.01005437,-0.2668283
323000000,-12.113778,176.34486,-67.396027,162.17128,-72.57859,126.22688,-0.0038838547,-0.266559
324000000,-12.082643,175.21165,-72.296402,-31.09165,-69.429443,-153.41718,0.011643418,-0.2474715
325000000,-12.087868,174.23355,-68.920105,-67.065262,-82.928291,-177.69051,-0.0091613811,-0.21579218
326000000,-12.058173,173.23398,-69.698135,-116.69396,-70.186012,2.9560554,0.0014664513,-0.2313769
327000000,-12.019816,172.19241,-79.722076,-160.41713,-69.197868,65.957863,0.0059848521,-0.22734213
328000000,-11.995285,171.2076,-76.677254,-7.598331,-69.738541,-173.16322,0.0098983776,-0.25772592
329000000,-11.97923,170.18121,-74.500198,170.57635,-67.952126,167.25565,0.0053002816,-0.21375568
330000000,-11.929708,169.07863,-72.099075,-46.621204,-82.302124,36.316769,0.0051213657,-0.2913197
331000000,-11.902849,168.17155,-78.372375,-145.28743,-67.360909,22.302801,0.0049284794,-0.30214009
332000000,-11.89469,166.90421,-63.49789,66.818878,-67.127586,-102.09177,-0.007330359,-0.2334857
333000000,-11.824246,166.10414,-69.308601,136.2079,-79.45388,72.0252,-0.0069816182,-0.24565101
334000000,-11.821409,165.27087,-68.266495,-137.68787,-91.697411,31.508196,-0.0016293096,-0.27218133
335000000,-11.78571,164.11185,-73.030701,80.954323,-71.709999,-30.074095,-0.0017214991,-0.28329501
336000000,-11.752531,163.20776,-69.581207,-40.397686,-68.490265,27.53017,0.011583007,-0.24209985
337000000,-11.697108,162.28661,-77.121696,-37.47485,-69.977386,-84.269974,-0.00091801345,-0.31020346
338000000,-11.646288,161.26414,-69.219719,-76.108078,-71.028839,-151.57484,0.0034062928,-0.19886702
339000000,-11.619355,160.39546,-69.305061,-139.9742,-76.873222,-170.95915,-0.0024634895,-0.23385581
340000000,-11.56169,159.37195,-73.900154,157.28682,-77.407883,-91.103203,0.0070544067,-0.24387087
341000000,-11.526814,158.40179,-75.27758,29.212357,-75.054825,-162.16931,0.012214961,-0.23286413
342000000,-11.471154,157.54263,-72.00148,111.33656,-67.569519,-111.10567,0.0027611549,-0.29447666
343000000,-11.404486,156.61337,-69.77581,-107.24909,-69.324806,4.8365779,-0.0025704606,-0.27228513
344000000,-11.359977,155.66446,-70.530029,-42.19812,-73.879974,1.3547864,0.0030301895,-0.29080865
345000000,-11.327912,154.60933,-73.687798,42.062313,-68.845093,37.893097,-0.00045639361,-0.23947801
346000000,-11.276694,153.84535,-79.994926,-6.425519,-66.096741,-57.58139,0.013012002,-0.24810599
347000000,-11.207284,152.79164,-62.582253,118.83483,-78.800735,73.335182,-0.00030598292,-0.24798465
348000000,-11.16029,152.04047,-69.615425,9.4523602,-76.158684,-91.735756,-0.0037740015,-0.33929044
349000000,-11.117545,151.09822,-83.287354,-173.19179,-72.331741,-17.00626,0.00034219903,-0.29417107
350000000,-11.041472,150.3463,-78.124649,144.06897,-88.302544,-146.31413,0.0013500022,-0.16965969
351000000,-10.986293,149.39421,-70.237534,-8.7746754,-69.17881,6.5125818,-0.0080294795,-0.31390488
352000000,-10.91696,148.43105,-68.135063,84.482239,-69.688446,-133.11545,-0.001510968,-0.20500666
353000000,-10.88179,147.34235,-77.012161,-41.228367,-69.116135,33.006325,0.0014110737,-0.15022285
354000000,-10.819282,146.3049,-68.020164,164.35919,-65.333237,5.8976607,0.012194311,-0.2960344
355000000,-10.778638,145.55168,-70.241631,-40.565601,-62.244118,14.698391,-0.0063612149,-0.20918471
356000000,-10.726818,144.76743,-67.514885,13.419594,-69.770134,-71.601936,0.011639288,-0.2854448
357000000,-10.669225,143.79707,-64.028763,-170.85695,-74.577919,109.1372,0.0096850414,-0.25766745
358000000,-10.599037,143.0264,-66.711868,122.85386,-70.530289,-146.26466,0.0063033164,-0.29561928
359000000,-10.546778,142.02513,-80.26709,90.493195,-75.491676,38.452465,0.0019047895,-0.3223328
360000000,-10.489201,141.23289,-64.17247,-36.692532,-73.370293,-67.078247,0.0055169361,-0.29040757
361000000,-10.435719,140.20049,-65.020866,-83.017159,-69.529396,117.54948,0.0013494847,-0.22779214
362000000,-10.394573,139.30693,-79.254845,-59.143768,-78.369728,-116.48669,0.0083329771,-0.18054698
363000000,-10.356034,138.65904,-69.190773,37.526081,-75.330803,116.703,-0.00038079929,-0.25539795
364000000,-10.277005,137.56389,-72.806839,-166.11736,-76.725296,-170.82391,0.0057030744,-0.18810998
365000000,-10.237934,136.96831,-71.093048,-26.506615,-69.256493,123.68272,-0.0085015018,-0.22133592
366000000,-10.188628,136.0675,-71.722755,-35.094116,-78.561409,-137.41403,0.00887034,-0.25276181
367000000,-10.145558,135.38124,-73.075829,-0.57941651,-84.057014,-112.61248,-0.0030452572,-0.24479175
368000000,-10.079858,134.5526,-68.558022,-152.90176,-68.579849,24.296412,0.0036644244,-0.27278614
369000000,-10.018219,133.46178,-71.683144,98.958763,-72.970421,-157.5439,-0.0052061989,-0.27073264
370000000,-9.960741,132.76598,-68.745773,-171.82973,-65.978615,-148.27499,0.010070383,-0.25986475
371000000,-9.9136734,131.99135,-73.25769,-157.23727,-64.977966,-177.98404,0.0047148988,-0.33813769
372000000,-9.8679132,131.19302,-71.343079,97.382782,-73.26123,-116.54034,0.00012166235,-0.27494186
373000000,-9.8074112,130.34753,-64.425873,-179.19185,-61.701359,-59.667072,-0.0072323456,-0.2431038
374000000,-9.7628937,129.58647,-89.347961,-178.06392,-67.839355,-69.16333,0.0022463209,-0.24331282
375000000,-9.7272625,128.69604,-74.863182,83.70771,-78.679726,-32.354652,0.0069748065,-0.24509814
376000000,-9.6874905,127.99905,-73.017532,-107.22985,-64.028748,-54.883011,-0.00044189597,-0.19441453
377000000,-9.6432772,127.23532,-62.541756,119.67934,-77.208313,161.31686,0.01030436,-0.24259087
378000000,-9.599021,126.50874,-72.808006,25.258959,-73.592812,-48.908524,0.0010912153,-0.21638104
379000000,-9.5625076,125.78439,-72.449158,28.731956,-68.26445,179.64281,-0.0023420171,-0.23728053
380000000,-9.5081778,125.13181,-72.37265,-116.24494,-68.958252,-177.93915,0.014771787,-0.2827712
381000000,-9.445858,124.39669,-68.590744,-23.3262,-71.163658,-142.38457,0.0035356192,-0.21768564
382000000,-9.3779173,123.57775,-68.429008,-140.40431,-68.723419,146.46008,0.012690416,-0.1832101
383000000,-9.3431664,123.0179,-68.286736,-66.410728,-70.234253,-12.47925,0.013057941,-0.21183343
384000000,-9.2860126,122.14952,-65.673386,130.86285,-72.245071,20.864998,0.0012671921,-0.22021213
385000000,-9.2354994,121.35983,-72.969604,176.20909,-63.249416,-41.313774,-0.0018336313,-0.19325067
386000000,-9.2038107,120.8237,-71.912613,171.16327,-63.030529,161.64526,0.0089705717,-0.28471458
387000000,-9.1424074,119.93642,-70.961067,71.246712,-66.714775,82.053459,0.0071996469,-0.26672918
388000000,-9.1048946,119.51009,-70.204079,108.13491,-70.580643,-95.957092,-0.0047617448,-0.23488471
389000000,-9.0594511,118.89321,-83.337944,-12.062966,-68.007355,-144.22598,0.0081557361,-0.22261611
390000000,-9.0074701,118.30253,-69.718117,-144.59731,-67.58049,67.127426,-0.0038908503,-0.27645728
391000000,-8.9501371,117.54195,-70.892426,-94.783104,-74.409409,11.811145,0.012277429,-0.31509525
392000000,-8.9015999,116.84484,-75.17543,42.421516,-78.85463,-24.418604,0.004674043,-0.31825206
393000000,-8.8433905,116.19574,-65.332909,-174.93961,-78.459091,32.74786,-0.0084799742,-0.25858462
394000000,-8.8020067,115.46649,-70.938263,168.27249,-64.949432,-132.13519,-0.011565706,-0.19996758
395000000,-8.7552929,114.67978,-70.007095,103.30261,-68.01342,-86.760414,0.0065416321,-0.24840179
396000000,-8.7066975,114.09399,-76.092621,26.108334,-68.418274,130.09428,-0.0035338367,-0.25392333
397000000,-8.670332,113.4688,-78.791389,44.1413,-71.129173,35.653893,0.0087747565,-0.24488167
398000000,-8.6231365,112.80327,-70.872406,-75.543312,-65.556168,149.29704,-0.0047741835,-0.23232229
399000000,-8.5793076,112.32692,-66.359215,165.58194,-68.882278,-104.97308,-0.0055833077,-0.26982257
400000000,-8.5417862,111.66405,-67.095863,33.949467,-65.669533,64.096268,0.0018716699,-0.22525436
401000000,-8.4832306,111.08193,-69.590233,-174.06731,-79.332764,147.10208,-0.0041483953,-0.19295655
402000000,-8.4359808,110.43288,-69.924477,156.37949,-68.040802,-133.63956,0.0023482577,-0.19778506
403000000,-8.4181671,109.7491,-66.827133,-53.478489,-68.462883,-114.12722,-0.0062287454,-0.16686355
404000000,-8.3561573,109.38726,-62.869404,123.78251,-83.203934,-147.17078,0.0012558056,-0.2275735
405000000,-8.3058434,108.67039,-77.025581,40.935577,-65.891426,84.187767,0.0010860395,-0.19409007
406000000,-8.2594261,108.09467,-72.309074,33.600609,-75.595993,-69.060791,-0.0042797644,-0.20715627
407000000,-8.1942358,107.63271,-77.42981,-16.264914,-67.585052,172.23524,0.0002992315,-0.17451072
408000000,-8.1417027,107.07096,-67.757141,66.891289,-69.607925,133.86739,0.0062831542,-0.1273243
409000000,-8.090188,106.37321,-67.117058,171.95638,-72.247627,-168.11734,-0.011255295,-0.16946411
410000000,-8.0507364,105.73911,-68.51815,102.78197,-82.184204,166.27748,0.0048198802,-0.23093377
411000000,-7.9926434,105.05389,-71.823074,-16.315161,-66.834694,70.337372,0.0049052085,-0.28731987
412000000,-7.9572229,104.48814,-66.612228,-27.747408,-68.747093,86.123817,-0.00073548261,-0.23520277
413000000,-7.9268947,103.84901,-67.482727,-32.028549,-70.751091,-16.253201,0.0073107709,-0.13871035
414000000,-7.8569417,103.24393,-75.180275,-153.38283,-86.326828,-174.04131,0.0024170766,-0.13598892
415000000,-7.8287101,102.81403,-75.827835,-132.78334,-69.431732,122.24306,0.010289381,-0.28082278
416000000,-7.7861834,102.17105,-65.422226,60.020439,-70.799484,86.597679,0.0085949497,-0.23253131
417000000,-7.7439685,101.55754,-70.937012,113.93214,-68.295105,-42.404354,0.0057935552,-0.21849763
418000000,-7.7023106,100.99319,-64.475143,-93.679123,-67.891289,-101.47704,-0.011161605,-0.21211633
419000000,-7.6745658,100.32455,-64.73996,-25.759918,-69.652336,-162.43518,0.006449616,-0.19550082
420000000,-7.6329808,99.788048,-65.971764,-50.370117,-69.393173,8.1672916,0.0053276871,-0.237066
421000000,-7.585278,99.330025,-67.528175,-48.050812,-70.852287,142.56953,-0.0066852756,-0.25517496
422000000,-7.5366249,98.853249,-66.642014,59.271107,-65.395615,-79.157341,-0.0032019801,-0.10559913
423000000,-7.5025291,98.286148,-73.380623,-132.47911,-74.085091,-140.1535,0.010597718,-0.22762008
424000000,-7.4696317,97.795067,-77.365295,-46.407593,-67.270386,-39.155964,0.0021345501,-0.19591974
425000000,-7.424407,97.418488,-73.412849,-145.80884,-69.789955,-101.27862,0.0036292491,-0.15760414
426000000,-7.3811808,96.709854,-75.042534,-112.52663,-73.132042,42.440128,-0.01458714,-0.18220423
427000000,-7.3335052,96.276329,-74.445351,87.138916,-73.511368,-173.28247,0.0071639833,-0.24313927
428000000,-7.2856126,95.743721,-75.306526,140.91045,-64.778419,78.468491,0.011062505,-0.14895436
429000000,-7.2270179,95.405289,-73.862602,-134.55814,-87.81102,-132.01305,-0.00037510387,-0.19750214
430000000,-7.1659465,94.733315,-68.196915,-87.475922,-74.030731,178.94189,0.016375614,-0.18475834
431000000,-7.1400685,94.174568,-87.289406,-120.73892,-66.718178,47.877747,-0.0081381444,-0.22222227
432000000,-7.078949,93.635658,-89.347969,167.91501,-74.952644,175.95889,0.0057366816,-0.2012846
433000000,-7.045815,93.139343,-65.842751,-149.032,-69.064285,155.44058,0.0027125198,-0.19158879
434000000,-7.00425,92.425858,-67.061783,100.11808,-69.309731,41.87616,-0.00071373477,-0.17737781
435000000,-6.9741406,91.959106,-72.046486,-145.79999,-68.662788,112.76842,0.013249434,-0.22343972
436000000,-6.9312329,91.424721,-65.232994,-49.331783,-75.151665,-96.043701,0.013264402,-0.14762127
437000000,-6.9183135,90.854538,-70.248894,18.0583,-65.488121,99.472771,0.0047831628,-0.22919711
438000000,-6.8738513,90.479057,-76.523071,-163.35454,-76.623421,-30.965872,0.0044594151,-0.10404895
439000000,-6.8593068,89.882477,-64.068054,-52.292736,-72.431641,-117.64519,-0.010196536,-0.23067233
440000000,-6.8042216,89.357437,-67.819397,-95.814926,-71.801895,-97.426704,-0.005908607,-0.15980725
441000000,-6.7756619,88.894257,-69.069588,-145.56656,-69.126518,112.09631,0.0046078456,-0.14151315
442000000,-6.7164989,88.352928,-74.81044,-56.474422,-68.240433,61.374447,-0.0035421269,-0.1992995
443000000,-6.6905956,87.90593,-83.274803,-87.325043,-65.473564,128.75972,-0.0029807566,-0.24125746
444000000,-6.6434989,87.392418,-70.700676,75.533783,-68.981827,-59.105152,0.0080622034,-0.20494972
445000000,-6.6113477,86.855995,-67.228363,-96.732338,-65.756966,-159.9091,0.0034425044,-0.25087664
446000000,-6.6009631,86.351212,-70.743103,92.551704,-71.581894,-4.1243629,0.013197303,-0.14057708
447000000,-6.5553246,85.885025,-66.832611,93.749771,-69.293869,-177.49535,0.0064025731,-0.11274399
448000000,-6.52598,85.42865,-70.741249,-144.96768,-73.610222,59.682884,0.0022494257,-0.12924312
449000000,-6.4871063,84.943039,-76.594307,158.29526,-66.049934,-27.134872,-0.0023508233,-0.13095918
450000000,-6.4612679,84.467056,-68.166656,-97.569077,-70.564392,-68.735924,-0.0075803283,-0.093737371
451000000,-6.4319534,83.996742,-65.906326,124.54309,-69.856583,-35.160503,0.0045809527,-0.20864145
452000000,-6.4132471,83.552223,-68.633705,-43.464077,-69.44606,24.064947,0.0072089508,-0.14531983
453000000,-6.3721514,83.099701,-72.810852,64.701126,-81.935188,42.922626,0.014446203,-0.095668353
454000000,-6.3540516,82.614006,-68.295822,-166.67358,-67.767143,9.8442202,0.0050515551,-0.11517373
455000000,-6.3179069,82.2369,-65.202629,123.13553,-65.778313,118.50497,0.014304301,-0.1813895
456000000,-6.2781134,81.746208,-79.697937,-116.91,-67.352051,6.6915097,0.0088481233,-0.11319073
457000000,-6.2592988,81.133904,-76.596695,-60.730293,-66.186317,-34.687572,7.4550946e-05,-0.21101566
458000000,-6.2650023,80.774628,-68.971237,-28.111055,-67.503166,-170.95242,0.001748504,-0.19990882
459000000,-6.2106748,80.272591,-75.550011,-118.24303,-63.640511,-171.67282,0.0050412128,-0.20572925
460000000,-6.2035999,79.837921,-76.789345,-13.819275,-68.600929,83.977959,-0.0061986749,-0.082154952
461000000,-6.1791101,79.486244,-68.834282,-116.87756,-66.798027,90.839912,0.0020610695,-0.11605565
462000000,-6.1557732,79.068802,-87.651932,-31.003998,-71.184456,-71.105743,0.014753728,-0.19300248
463000000,-6.12779,78.659698,-71.413513,65.18705,-72.151436,-97.860428,0.0058271619,-0.22932743
464000000,-6.1026134,78.3993,-64.251419,59.184956,-71.434853,-58.037247,0.014726898,-0.16950259
465000000,-6.0565896,77.922745,-74.371979,95.865494,-68.87558,125.64294,-0.0032250357,-0.17276061
466000000,-6.0336475,77.578072,-62.75037,-122.32053,-90.36644,153.7128,-0.0046798564,-0.21967188
467000000,-5.9976373,77.038895,-76.692879,89.005951,-68.144936,-98.548767,-0.0006109518,-0.16806033
468000000,-5.997221,76.756569,-69.660339,160.76976,-77.214462,30.528494,0.0058524963,-0.14787655
469000000,-5.9365029,76.163239,-72.778313,-118.30236,-72.317215,98.642555,0.0020108742,-0.1777831
470000000,-5.9081573,75.80719,-78.794228,11.995629,-69.746307,176.30196,0.01364891,-0.19946805
471000000,-5.8844118,75.287666,-67.687027,-143.63538,-65.401634,-45.047089,0.010037841,-0.24533236
472000000,-5.8584976,74.913376,-70.992142,-85.168007,-68.651558,36.042313,-0.0015327197,-0.20338129
473000000,-5.8424025,74.550369,-70.557503,-10.660892,-78.959503,-24.306581,0.0049507162,-0.15648538
474000000,-5.8132467,74.112106,-75.445427,108.03922,-72.806953,-37.510231,-0.00082817109,-0.23439571
475000000,-5.7779951,73.775848,-70.336884,-9.3885489,-69.17469,-152.93352,0.0049124481,-0.15192309
476000000,-5.7486372,73.289253,-73.935562,-80.203583,-74.872955,-143.71344,-0.0001791346,-0.21415354
477000000,-5.747705,72.876495,-66.06324,-74.684486,-70.467003,69.191071,0.017330201,-0.20700109
478000000,-5.7160006,72.546715,-72.935501,132.00769,-66.220917,33.787495,0.011801413,-0.21221963
479000000,-5.693687,72.052711,-71.867416,-74.509056,-67.842094,16.663979,-0.0090583982,-0.18405232
480000000,-5.6697893,71.729141,-69.143227,-127.85149,-69.52829,-40.727787,0.0071216002,-0.19021536
481000000,-5.659718,71.234062,-72.937889,-97.10556,-79.251823,74.418419,-0.0055112531,-0.065156952
482000000,-5.6161833,70.819839,-79.543236,70.428848,-73.815361,108.06987,0.015949052,-0.27730936
483000000,-5.6054578,70.578171,-75.727852,83.159203,-81.16993,-12.023599,-0.0045031272,-0.17936182
484000000,-5.5736046,70.128418,-68.438034,-123.42637,-78.710442,-135.46013,0.0024186289,-0.15543763
485000000,-5.5639758,69.627762,-68.000366,56.407818,-74.64093,-13.933656,0.0058654221,-0.18889055
486000000,-5.5321412,69.348511,-73.432899,-165.64099,-73.093285,170.5925,-0.0074685663,-0.20671536
487000000,-5.4948192,68.935349,-83.606819,93.21611,-71.001556,33.394306,0.0050872359,-0.19292365
488000000,-5.4837451,68.32193,-72.36734,32.908165,-68.584282,-90.717827,-0.0094456999,-0.15084834
489000000,-5.484756,67.968681,-76.300438,-56.958965,-78.190895,-62.352161,-0.008426805,-0.18768299
490000000,-5.4691319,67.669479,-69.73735,-112.14392,-72.872849,-143.56609,0.013760385,-0.15574966
491000000,-5.4378896,67.279182,-71.576027,16.708891,-62.969894,-50.567139,-0.0023435713,-0.13703874
492000000,-5.4180651,67.024033,-63.347214,7.7695894,-78.562279,-170.43759,-0.0034364271,-0.22361037
493000000,-5.4122672,66.661346,-66.94455,-86.48922,-72.032959,104.66167,0.0061141015,-0.15803683
494000000,-5.3993115,66.242378,-74.745392,-6.6002588,-80.954742,-111.09828,0.0081934584,-0.28256917
495000000,-5.377317,65.791664,-65.185066,154.3262,-78.822296,67.647659,0.01133464,-0.20697519
496000000,-5.3609715,65.513123,-79.900032,13.469135,-80.395813,-98.513268,0.0058111344,-0.17711832
497000000,-5.3365121,65.190048,-64.56588,-1.5378655,-68.033302,92.283028,0.0025324624,-0.32270065
498000000,-5.326076,64.985817,-73.110504,-113.75542,-71.013199,-65.791893,0.0010870746,-0.23604549
499000000,-5.2990184,64.537292,-68.926163,-118.71178,-60.403225,-59.394218,0.013382597,-0.20993517
